(1684957148.486059) can0 322#R8
(1684957148.486391) can0 612#R8
(1684957148.486584) can0 102#R8
(1684957148.489504) can0 1E618B5F#R8
(1684957148.536064) can0 102#R8
(1684957148.536121) can0 1E618B5F#R8
(1684957148.536221) can0 04C89349#4B7FA487BED44C
(1684957148.536268) can0 102#R8
(1684957148.536312) can0 1E618B5F#R8
(1684957148.536356) can0 04C89349#4B7FA487BED44C
(1684957148.536400) can0 102#R8
(1684957148.536453) can0 1E618B5F#R8
(1684957148.536508) can0 102#R8
(1684957148.536551) can0 1E618B5F#R8
(1684957148.536594) can0 04C89349#4B7FA487BED44C
(1684957148.536629) can0 102#R8
(1684957148.536673) can0 1E618B5F#R8
(1684957148.536718) can0 04C89349#4B7FA487BED44C
(1684957148.536762) can0 102#R8
(1684957148.539506) can0 1E618B5F#R8
(1684957148.586153) can0 612#R8
(1684957148.586199) can0 1E618B5F#R8
(1684957148.586245) can0 04C89349#4B7FA487BED44C
(1684957148.586300) can0 612#R8
(1684957148.586345) can0 04C89349#4B7FA487BED44C
(1684957148.586390) can0 1E618B5F#R8
(1684957148.586445) can0 612#R8
(1684957148.586499) can0 1E618B5F#R8
(1684957148.586554) can0 612#R8
(1684957148.589510) can0 1E618B5F#R8
(1684957148.636757) can0 322#R8
(1684957148.639511) can0 1E618B5F#R8
(1684957148.686136) can0 612#R8
(1684957148.687027) can0 0C818B5F#R8
(1684957148.689517) can0 1E618B5F#R8
(1684957148.736137) can0 612#R8
(1684957148.737302) can0 1E618B5F#R8
(1684957148.737368) can0 612#R8
(1684957148.737667) can0 02489224#R8
(1684957148.737779) can0 612#R8
(1684957148.737825) can0 02489224#R8
(1684957148.737869) can0 04C89349#4B7FA487BED44C
(1684957148.738141) can0 04C89249#R8
(1684957148.738238) can0 04C89349#4B7FA487BED44C
(1684957148.738286) can0 04C89249#R8
(1684957148.738458) can0 427#R8
(1684957148.744527) can0 1E60925F#4B7FA487BED44C
(1684957148.786352) can0 612#R8
(1684957148.787696) can0 105#R8
(1684957148.789687) can0 642#157344E7BE32DB7E
(1684957148.789731) can0 105#R8
(1684957148.789777) can0 04C89249#R8
(1684957148.789812) can0 642#157344E7BE32DB7E
(1684957148.789885) can0 105#R8
(1684957148.789929) can0 04C89249#R8
(1684957148.789974) can0 642#157344E7BE32DB7E
(1684957148.838004) can0 105#R8
(1684957148.839809) can0 642#157344E7BED44C84
(1684957148.839865) can0 105#R8
(1684957148.839911) can0 04C89249#R8
(1684957148.839946) can0 642#157344E7BED44C84
(1684957148.840018) can0 105#R8
(1684957148.888300) can0 105#R8
(1684957148.889811) can0 642#157344E7BED44C84
(1684957148.889868) can0 105#R8
(1684957148.889914) can0 642#157344E7BED44C84
(1684957148.889949) can0 642#157344E7BED44C84
(1684957148.890021) can0 105#R8
(1684957148.938593) can0 105#R8
(1684957148.944673) can0 642#157344E7BE32DB7E
(1684957148.944729) can0 105#R8
(1684957148.944775) can0 642#157344E7BED44C84
(1684957148.944810) can0 642#157344E7BE32DB7E
(1684957148.944882) can0 105#R8
(1684957148.944927) can0 642#157344E7BED44C84
(1684957148.944972) can0 642#157344E7BE32DB7E
(1684957148.988899) can0 105#R8
(1684957148.994677) can0 642#157344E7BE32DB7E
(1684957148.994733) can0 105#R8
(1684957148.994779) can0 642#157344E7BED44C84
(1684957148.994814) can0 642#157344E7BE32DB7E
(1684957148.994886) can0 105#R8
(1684957148.994930) can0 642#157344E7BED44C84
(1684957148.994975) can0 642#157344E7BE32DB7E
(1684957149.039197) can0 105#R8
(1684957149.044681) can0 642#157344E7BE32DB7E
(1684957149.044737) can0 105#R8
(1684957149.044783) can0 642#157344E7BED44C84
(1684957149.044818) can0 642#157344E7BE32DB7E
(1684957149.044890) can0 105#R8
(1684957149.044934) can0 642#157344E7BED44C84
(1684957149.044979) can0 642#157344E7BE32DB7E
(1684957149.089468) can0 105#R8
(1684957149.089565) can0 642#157344E7BE32DB7E
(1684957149.136055) can0 105#R8
(1684957149.136111) can0 642#157344E7BE32DB7E
(1684957149.136210) can0 642#157344E7BED44C84
(1684957149.136256) can0 105#R8
(1684957149.136301) can0 642#157344E7BE32DB7E
(1684957149.136344) can0 642#157344E7BED44C84
(1684957149.136388) can0 105#R8
(1684957149.136431) can0 642#157344E7BE32DB7E
(1684957149.136475) can0 642#157344E7BED44C84
(1684957149.136518) can0 105#R8
(1684957149.136562) can0 642#157344E7BE32DB7E
(1684957149.136605) can0 642#157344E7BED44C84
(1684957149.136648) can0 105#R8
(1684957149.136681) can0 642#157344E7BE32DB7E
(1684957149.136725) can0 642#157344E7BED44C84
(1684957149.136758) can0 105#R8
(1684957149.136802) can0 642#157344E7BE32DB7E
(1684957149.136847) can0 642#157344E7BED44C84
(1684957149.136891) can0 105#R8
(1684957149.136926) can0 642#157344E7BE32DB7E
(1684957149.137056) can0 642#157344E7BED44C84
(1684957149.137102) can0 105#R8
(1684957149.137146) can0 642#157344E7BE32DB7E
(1684957149.137182) can0 642#157344E7BED44C84
(1684957149.137226) can0 105#R8
(1684957149.137259) can0 642#157344E7BE32DB7E
(1684957149.137303) can0 642#157344E7BED44C84
(1684957149.139748) can0 105#R8
(1684957149.139848) can0 642#157344E7BED44C84
(1684957149.186053) can0 105#R8
(1684957149.186109) can0 642#157344E7BED44C84
(1684957149.186208) can0 642#157344E7BE32DB7E
(1684957149.186255) can0 105#R8
(1684957149.186299) can0 642#157344E7BED44C84
(1684957149.186343) can0 642#157344E7BE32DB7E
(1684957149.186643) can0 09EBC766#157344E7BED44C84
(1684957149.186690) can0 642#157344E7BED44C84
(1684957149.186734) can0 642#157344E7BE32DB7E
(1684957149.186778) can0 09EBC766#157344E7BED44C84
(1684957149.186822) can0 642#157344E7BED44C84
(1684957149.186855) can0 642#157344E7BE32DB7E
(1684957149.186899) can0 09EBC766#157344E7BED44C84
(1684957149.186942) can0 642#157344E7BED44C84
(1684957149.186985) can0 642#157344E7BE32DB7E
(1684957149.187115) can0 09EBC766#157344E7BED44C84
(1684957149.187161) can0 642#157344E7BE32DB7E
(1684957149.187207) can0 642#157344E7BED44C84
(1684957149.187240) can0 09EBC766#157344E7BED44C84
(1684957149.187285) can0 642#157344E7BE32DB7E
(1684957149.187318) can0 642#157344E7BED44C84
(1684957149.187390) can0 09EBC766#157344E7BED44C84
(1684957149.190038) can0 102#157344E7BE32DB7E
(1684957149.190135) can0 09EBC766#157344E7BED44C84
(1684957149.236051) can0 102#157344E7BE32DB7E
(1684957149.236107) can0 09EBC766#157344E7BED44C84
(1684957149.236207) can0 642#157344E7BED44C84
(1684957149.236253) can0 102#157344E7BE32DB7E
(1684957149.236297) can0 09EBC766#157344E7BED44C84
(1684957149.236341) can0 642#157344E7BED44C84
(1684957149.236384) can0 102#157344E7BE32DB7E
(1684957149.236427) can0 09EBC766#157344E7BED44C84
(1684957149.236471) can0 642#157344E7BED44C84
(1684957149.236514) can0 102#157344E7BE32DB7E
(1684957149.236558) can0 09EBC766#157344E7BED44C84
(1684957149.236601) can0 642#157344E7BED44C84
(1684957149.236645) can0 102#157344E7BE32DB7E
(1684957149.236688) can0 09EBC766#157344E7BED44C84
(1684957149.236797) can0 642#157344E7BED44C84
(1684957149.236843) can0 102#157344E7BE32DB7E
(1684957149.236888) can0 09EBC766#157344E7BED44C84
(1684957149.236933) can0 642#157344E7BED44C84
(1684957149.236976) can0 102#157344E7BE32DB7E
(1684957149.237021) can0 09EBC766#157344E7BED44C84
(1684957149.237064) can0 642#157344E7BED44C84
(1684957149.237098) can0 102#157344E7BE32DB7E
(1684957149.237143) can0 09EBC766#157344E7BED44C84
(1684957149.237187) can0 642#157344E7BED44C84
(1684957149.237231) can0 102#157344E7BE32DB7E
(1684957149.237264) can0 09EBC766#157344E7BED44C84
(1684957149.237308) can0 642#157344E7BED44C84
(1684957149.240351) can0 02039249#157344E7BE32DB7E
(1684957149.240407) can0 642#157344E7BED44C84
(1684957149.240454) can0 09EBC766#157344E7BED44C84
(1684957149.290662) can0 02039249#157344E7BE32DB7E
(1684957149.290707) can0 09EBC766#157344E7BED44C84
(1684957149.290753) can0 642#157344E7BED44C84
(1684957149.340948) can0 02039249#157344E7BE32DB7E
(1684957149.341005) can0 642#157344E7BED44C84
(1684957149.341052) can0 09EBC766#157344E7BED44C84
(1684957149.943962) can0 02039249#157344E7BE32DB7E
(1684957149.944019) can0 09EBC766#157344E7BED44C84
(1684957149.944250) can0 0248925F#157344E7BED44C84
(1684957149.944306) can0 02039249#157344E7BE32DB7E
(1684957149.944525) can0 122#R8
(1684957149.944813) can0 04C89249#R8
(1684957149.944878) can0 122#R8
(1684957149.944933) can0 04C89249#R8
(1684957149.944979) can0 122#R8
(1684957149.949721) can0 0990CD3F#R4
(1684957149.949777) can0 04C89249#R8
(1684957149.949935) can0 122#R8
(1684957149.949982) can0 0990CD3F#R4
(1684957149.950081) can0 04C89249#R8
(1684957149.950127) can0 122#R8
(1684957149.950170) can0 0990CD3F#R4
(1684957149.950214) can0 04C89249#R8
(1684957149.950257) can0 122#R8
(1684957149.950310) can0 0990CD3F#R4
(1684957149.986089) can0 252#R8
(1684957149.986229) can0 0C90CD3F#R
(1684957149.986275) can0 252#R8
(1684957149.986320) can0 04C89249#R8
(1684957149.986353) can0 0C90CD3F#R
(1684957149.986397) can0 252#R8
(1684957149.986450) can0 04C89249#R8
(1684957149.986639) can0 319#157344E7BED44C84
(1684957149.986686) can0 04C89249#R8
(1684957149.994198) can0 0C90CD3F#R
(1684957149.994264) can0 319#157344E7BED44C84
(1684957149.994495) can0 0248923F#R
(1684957149.994550) can0 319#157344E7BED44C84
(1684957149.994773) can0 122#R8
(1684957149.995040) can0 04C89349#157344E7BE32DB
(1684957149.995150) can0 122#R8
(1684957149.995196) can0 04C89349#157344E7BE32DB
(1684957149.995240) can0 319#157344E7BED44C84
(1684957149.999723) can0 0990CD3F#R4
(1684957149.999779) can0 319#157344E7BED44C84
(1684957149.999937) can0 04C89349#157344E7BE32DB
(1684957149.999983) can0 0990CD3F#R4
(1684957150.000084) can0 319#157344E7BED44C84
(1684957150.000130) can0 04C89349#157344E7BE32DB
(1684957150.000174) can0 0990CD3F#R4
(1684957150.000218) can0 319#157344E7BED44C84
(1684957150.000261) can0 04C89349#157344E7BE32DB
(1684957150.000315) can0 0990CD3F#R4
(1684957150.036344) can0 252#R7
(1684957150.036484) can0 0C90CD3F#R
(1684957150.036530) can0 252#R7
(1684957150.036575) can0 319#157344E7BED44C84
(1684957150.036608) can0 0C90CD3F#R
(1684957150.036652) can0 252#R7
(1684957150.036705) can0 319#157344E7BED44C84
(1684957150.036897) can0 319#157344E7BE32DB7E
(1684957150.036945) can0 319#157344E7BED44C84
(1684957150.044476) can0 0C90CD3F#R
(1684957150.044541) can0 319#157344E7BE32DB7E
(1684957150.044770) can0 0248923F#R
(1684957150.044825) can0 319#157344E7BE32DB7E
(1684957150.045042) can0 122#R8
(1684957150.045308) can0 04C89349#157344E7BED44C
(1684957150.045418) can0 122#R8
(1684957150.045465) can0 04C89349#157344E7BED44C
(1684957150.045509) can0 319#157344E7BE32DB7E
(1684957150.049729) can0 0990CD3F#R4
(1684957150.049785) can0 319#157344E7BE32DB7E
(1684957150.049945) can0 04C89349#157344E7BED44C
(1684957150.049991) can0 0990CD3F#R4
(1684957150.050090) can0 319#157344E7BE32DB7E
(1684957150.050136) can0 04C89349#157344E7BED44C
(1684957150.050179) can0 0990CD3F#R4
(1684957150.050223) can0 319#157344E7BE32DB7E
(1684957150.050266) can0 04C89349#157344E7BED44C
(1684957150.050309) can0 0990CD3F#R4
(1684957150.086089) can0 252#R8
(1684957150.086227) can0 0C889349#R
(1684957150.086274) can0 252#R8
(1684957150.086318) can0 0990CD3F#R4
(1684957150.086351) can0 0C889349#R
(1684957150.086395) can0 252#R8
(1684957150.086448) can0 0990CD3F#R4
(1684957150.086645) can0 319#157344E7BE32DB7E
(1684957150.086692) can0 0990CD3F#R4
(1684957150.094720) can0 0C889349#R
(1684957150.094786) can0 319#157344E7BE32DB7E
(1684957150.095019) can0 02489249#R
(1684957150.095074) can0 319#157344E7BE32DB7E
(1684957150.095297) can0 122#R8
(1684957150.095563) can0 04C89349#157344E7BED44C
(1684957150.095674) can0 122#R8
(1684957150.095720) can0 04C89349#157344E7BED44C
(1684957150.095764) can0 319#157344E7BE32DB7E
(1684957150.099734) can0 0990CD3F#R4
(1684957150.099790) can0 319#157344E7BE32DB7E
(1684957150.099944) can0 04C89349#157344E7BED44C
(1684957150.099990) can0 0990CD3F#R4
(1684957150.100089) can0 319#157344E7BE32DB7E
(1684957150.100135) can0 04C89349#157344E7BED44C
(1684957150.100179) can0 0990CD3F#R4
(1684957150.100223) can0 319#157344E7BE32DB7E
(1684957150.100266) can0 04C89349#157344E7BED44C
(1684957150.100310) can0 0990CD3F#R4
(1684957150.100353) can0 319#157344E7BE32DB7E
(1684957150.136088) can0 252#R7
(1684957150.136226) can0 321#
(1684957150.136273) can0 252#R7
(1684957150.136317) can0 0990CD3F#R4
(1684957150.136351) can0 321#
(1684957150.136394) can0 252#R7
(1684957150.136447) can0 0990CD3F#R4
(1684957150.136635) can0 319#157344E7BED44C84
(1684957150.136681) can0 0990CD3F#R4
(1684957150.144943) can0 321#
(1684957150.144998) can0 319#157344E7BED44C84
(1684957150.145201) can0 0248923F#R4
(1684957150.145255) can0 321#
(1684957150.145480) can0 122#R8
(1684957150.145751) can0 04C89349#157344E7BED44C
(1684957150.145817) can0 122#R8
(1684957150.145863) can0 04C89349#157344E7BED44C
(1684957150.145908) can0 321#
(1684957150.149735) can0 0990CD3F#R4
(1684957150.149791) can0 321#
(1684957150.149952) can0 04C89349#157344E7BED44C
(1684957150.149999) can0 0990CD3F#R4
(1684957150.150090) can0 321#
(1684957150.150136) can0 04C89349#157344E7BED44C
(1684957150.150180) can0 0990CD3F#R4
(1684957150.150223) can0 321#
(1684957150.150267) can0 04C89349#157344E7BED44C
(1684957150.150310) can0 0990CD3F#R4
(1684957150.150354) can0 321#
(1684957150.186087) can0 252#R7
(1684957150.186226) can0 321#
(1684957150.186272) can0 252#R7
(1684957150.186317) can0 0990CD3F#R4
(1684957150.186350) can0 321#
(1684957150.186393) can0 252#R7
(1684957150.186446) can0 0990CD3F#R4
(1684957150.186642) can0 319#157344E7BED44C84
(1684957150.186688) can0 0990CD3F#R4
(1684957150.195240) can0 321#
(1684957150.195307) can0 319#157344E7BED44C84
(1684957150.195537) can0 02489249#R
(1684957150.195592) can0 319#157344E7BED44C84
(1684957150.195815) can0 122#R8
(1684957150.196084) can0 04C89349#157344E7BE32DB
(1684957150.196195) can0 122#R8
(1684957150.196241) can0 04C89349#157344E7BE32DB
(1684957150.196286) can0 319#157344E7BED44C84
(1684957150.199740) can0 0990CD3F#R4
(1684957150.199796) can0 319#157344E7BED44C84
(1684957150.199955) can0 04C89349#157344E7BE32DB
(1684957150.200002) can0 0990CD3F#R4
(1684957150.200100) can0 319#157344E7BED44C84
(1684957150.200146) can0 04C89349#157344E7BE32DB
(1684957150.200191) can0 0990CD3F#R4
(1684957150.200234) can0 319#157344E7BED44C84
(1684957150.200277) can0 04C89349#157344E7BE32DB
(1684957150.200321) can0 0990CD3F#R4
(1684957150.200364) can0 319#157344E7BED44C84
(1684957150.236085) can0 252#R7
(1684957150.236224) can0 321#
(1684957150.236270) can0 252#R7
(1684957150.236314) can0 0990CD3F#R4
(1684957150.236348) can0 321#
(1684957150.236567) can0 224#R8
(1684957150.236613) can0 0990CD3F#R4
(1684957150.236658) can0 321#
(1684957150.236691) can0 224#R8
(1684957150.236735) can0 0990CD3F#R4
(1684957150.245485) can0 321#
(1684957150.245551) can0 0990CD3F#R4
(1684957150.245744) can0 02489249#R
(1684957150.245790) can0 0990CD3F#R4
(1684957150.246020) can0 122#R8
(1684957150.246288) can0 04C89349#157344E7BED44C
(1684957150.246388) can0 122#R8
(1684957150.246435) can0 04C89349#157344E7BED44C
(1684957150.246480) can0 0990CD3F#R4
(1684957150.249749) can0 0990CD3F#R4
(1684957150.249795) can0 0990CD3F#R4
(1684957150.249955) can0 04C89349#157344E7BED44C
(1684957150.250001) can0 0990CD3F#R4
(1684957150.250098) can0 0990CD3F#R4
(1684957150.250144) can0 04C89349#157344E7BED44C
(1684957150.250189) can0 0990CD3F#R4
(1684957150.250232) can0 0990CD3F#R4
(1684957150.250276) can0 04C89349#157344E7BED44C
(1684957150.250320) can0 0990CD3F#R4
(1684957150.250363) can0 0990CD3F#R4
(1684957150.286253) can0 252#R7
(1684957150.286393) can0 0C90CD3F#R
(1684957150.286439) can0 252#R7
(1684957150.286483) can0 0990CD3F#R4
(1684957150.286517) can0 0C90CD3F#R
(1684957150.286560) can0 252#R7
(1684957150.286614) can0 0990CD3F#R4
(1684957150.286803) can0 319#157344E7BED44C84
(1684957150.286851) can0 0990CD3F#R4
(1684957150.295783) can0 0C90CD3F#R
(1684957150.295850) can0 319#157344E7BED44C84
(1684957150.296080) can0 0248923F#R
(1684957150.296135) can0 319#157344E7BED44C84
(1684957150.296368) can0 122#R8
(1684957150.296635) can0 04C89349#157344E7BED44C
(1684957150.296773) can0 122#R8
(1684957150.296819) can0 04C89349#157344E7BED44C
(1684957150.296864) can0 319#157344E7BED44C84
(1684957150.299747) can0 0990CD3F#R4
(1684957150.299803) can0 319#157344E7BED44C84
(1684957150.299958) can0 04C89349#157344E7BED44C
(1684957150.300004) can0 0990CD3F#R4
(1684957150.300101) can0 319#157344E7BED44C84
(1684957150.300148) can0 04C89349#157344E7BED44C
(1684957150.300192) can0 0990CD3F#R4
(1684957150.300236) can0 319#157344E7BED44C84
(1684957150.300279) can0 04C89349#157344E7BED44C
(1684957150.300323) can0 0990CD3F#R4
(1684957150.300366) can0 319#157344E7BED44C84
(1684957150.336200) can0 252#R7
(1684957150.336338) can0 321#
(1684957150.336385) can0 252#R7
(1684957150.336429) can0 0990CD3F#R4
(1684957150.336462) can0 321#
(1684957150.336506) can0 252#R7
(1684957150.336559) can0 0990CD3F#R4
(1684957150.336753) can0 319#157344E7BED44C84
(1684957150.336799) can0 0990CD3F#R4
(1684957150.346055) can0 321#
(1684957150.346121) can0 319#157344E7BED44C84
(1684957150.346349) can0 02489249#R
(1684957150.346403) can0 319#157344E7BED44C84
(1684957150.346620) can0 122#R8
(1684957150.346887) can0 04C89349#157344E7BED44C
(1684957150.346996) can0 122#R8
(1684957150.347042) can0 04C89349#157344E7BED44C
(1684957150.347086) can0 319#157344E7BED44C84
(1684957150.349750) can0 0990CD3F#R4
(1684957150.349807) can0 319#157344E7BED44C84
(1684957150.349965) can0 04C89349#157344E7BED44C
(1684957150.350012) can0 0990CD3F#R4
(1684957150.350111) can0 319#157344E7BED44C84
(1684957150.350156) can0 04C89349#157344E7BED44C
(1684957150.350200) can0 0990CD3F#R4
(1684957150.350244) can0 319#157344E7BED44C84
(1684957150.350287) can0 04C89349#157344E7BED44C
(1684957150.350331) can0 0990CD3F#R4
(1684957150.350374) can0 319#157344E7BED44C84
(1684957150.386083) can0 252#R7
(1684957150.386368) can0 321#
(1684957150.386422) can0 252#R7
(1684957150.386468) can0 0990CD3F#R4
(1684957150.386503) can0 321#
(1684957150.386575) can0 252#R7
(1684957150.386620) can0 0990CD3F#R4
(1684957150.386777) can0 319#157344E7BED44C84
(1684957150.386824) can0 252#R7
(1684957150.396340) can0 0990CD3F#R4
(1684957150.396407) can0 319#157344E7BED44C84
(1684957150.396638) can0 0248923F#R4
(1684957150.396692) can0 319#157344E7BED44C84
(1684957150.396914) can0 122#R8
(1684957150.397183) can0 04C89349#157344E7BE32DB
(1684957150.397295) can0 122#R8
(1684957150.397341) can0 04C89349#157344E7BE32DB
(1684957150.397385) can0 319#157344E7BED44C84
(1684957150.399753) can0 0990CD3F#R4
(1684957150.399810) can0 319#157344E7BED44C84
(1684957150.399968) can0 04C89349#157344E7BE32DB
(1684957150.400015) can0 0990CD3F#R4
(1684957150.400113) can0 319#157344E7BED44C84
(1684957150.400159) can0 04C89349#157344E7BE32DB
(1684957150.400203) can0 0990CD3F#R4
(1684957150.400247) can0 319#157344E7BED44C84
(1684957150.400290) can0 04C89349#157344E7BE32DB
(1684957150.400334) can0 0990CD3F#R4
(1684957150.436081) can0 252#R8
(1684957150.436219) can0 0C889349#R
(1684957150.436266) can0 252#R8
(1684957150.436310) can0 0990CD3F#R4
(1684957150.436343) can0 0C889349#R
(1684957150.436555) can0 224#R8
(1684957150.436603) can0 0990CD3F#R4
(1684957150.436648) can0 0C889349#R
(1684957150.436682) can0 224#R8
(1684957150.436726) can0 0990CD3F#R4
(1684957150.446633) can0 0C889349#R
(1684957150.446698) can0 0990CD3F#R4
(1684957150.446926) can0 02489249#R
(1684957150.446980) can0 0990CD3F#R4
(1684957150.447200) can0 122#R8
(1684957150.447465) can0 04C89349#157344E7BE32DB
(1684957150.447578) can0 122#R8
(1684957150.447624) can0 04C89349#157344E7BE32DB
(1684957150.447668) can0 0990CD3F#R4
(1684957150.449755) can0 0990CD3F#R4
(1684957150.449811) can0 0990CD3F#R4
(1684957150.449969) can0 04C89349#157344E7BE32DB
(1684957150.450015) can0 0990CD3F#R4
(1684957150.450114) can0 0990CD3F#R4
(1684957150.450160) can0 04C89349#157344E7BE32DB
(1684957150.450203) can0 0990CD3F#R4
(1684957150.450247) can0 0990CD3F#R4
(1684957150.450290) can0 04C89349#157344E7BE32DB
(1684957150.450334) can0 0990CD3F#R4
(1684957150.450377) can0 0990CD3F#R4
(1684957150.486096) can0 252#R7
(1684957150.486234) can0 0C90CD3F#R
(1684957150.486281) can0 252#R7
(1684957150.486325) can0 0990CD3F#R4
(1684957150.486358) can0 0C90CD3F#R
(1684957150.486401) can0 252#R7
(1684957150.486454) can0 0990CD3F#R4
(1684957150.486497) can0 252#R7
(1684957150.486541) can0 0C90CD3F#R
(1684957150.486584) can0 0990CD3F#R4
(1684957150.486627) can0 252#R7
(1684957150.486672) can0 0C90CD3F#R
(1684957150.496855) can0 0990CD3F#R4
(1684957150.496922) can0 252#R7
(1684957150.497127) can0 0248923F#R4
(1684957150.497181) can0 252#R7
(1684957150.497406) can0 122#R8
(1684957150.497671) can0 04C89349#157344E7BED44C
(1684957150.497767) can0 122#R8
(1684957150.497816) can0 04C89349#157344E7BED44C
(1684957150.497861) can0 252#R7
(1684957150.499765) can0 0990CD3F#R4
(1684957150.499822) can0 252#R7
(1684957150.499974) can0 04C89349#157344E7BED44C
(1684957150.500020) can0 0990CD3F#R4
(1684957150.500119) can0 252#R7
(1684957150.500166) can0 04C89349#157344E7BED44C
(1684957150.500210) can0 0990CD3F#R4
(1684957150.500253) can0 252#R7
(1684957150.500297) can0 04C89349#157344E7BED44C
(1684957150.500350) can0 0990CD3F#R4
(1684957150.536391) can0 252#R7
(1684957150.536531) can0 0C90CD3F#R
(1684957150.536577) can0 252#R7
(1684957150.536621) can0 252#R7
(1684957150.536655) can0 0C90CD3F#R
(1684957150.536698) can0 252#R7
(1684957150.536752) can0 252#R7
(1684957150.536795) can0 252#R7
(1684957150.536838) can0 0C90CD3F#R
(1684957150.536881) can0 252#R7
(1684957150.536925) can0 252#R7
(1684957150.536969) can0 0C90CD3F#R
(1684957150.547234) can0 252#R7
(1684957150.547299) can0 252#R7
(1684957150.547526) can0 02489249#157344E7BE32DB
(1684957150.547581) can0 252#R7
(1684957150.547799) can0 122#R8
(1684957150.548066) can0 04C89349#157344E7BE32DB
(1684957150.548177) can0 122#R8
(1684957150.548224) can0 04C89349#157344E7BE32DB
(1684957150.548269) can0 252#R7
(1684957150.549767) can0 0990CD3F#R4
(1684957150.549823) can0 252#R7
(1684957150.549981) can0 04C89349#157344E7BE32DB
(1684957150.550028) can0 0990CD3F#R4
(1684957150.550126) can0 252#R7
(1684957150.550172) can0 04C89349#157344E7BE32DB
(1684957150.550216) can0 0990CD3F#R4
(1684957150.550259) can0 252#R7
(1684957150.550302) can0 04C89349#157344E7BE32DB
(1684957150.550356) can0 0990CD3F#R4
(1684957150.586079) can0 252#R7
(1684957150.586217) can0 0C90CD3F#R
(1684957150.586263) can0 252#R7
(1684957150.586307) can0 252#R7
(1684957150.586340) can0 0C90CD3F#R
(1684957150.586384) can0 252#R7
(1684957150.586437) can0 252#R7
(1684957150.586480) can0 252#R7
(1684957150.586523) can0 0C90CD3F#R
(1684957150.586566) can0 252#R7
(1684957150.586610) can0 252#R7
(1684957150.586654) can0 0C90CD3F#R
(1684957150.597497) can0 252#R7
(1684957150.597563) can0 252#R7
(1684957150.597764) can0 02489249#157344E7BED44C
(1684957150.597818) can0 252#R7
(1684957150.598047) can0 122#R8
(1684957150.598315) can0 04C89349#157344E7BED44C
(1684957150.598412) can0 122#R8
(1684957150.598460) can0 04C89349#157344E7BED44C
(1684957150.598505) can0 252#R7
(1684957150.599770) can0 0990CD3F#R4
(1684957150.599827) can0 252#R7
(1684957150.599985) can0 04C89349#157344E7BED44C
(1684957150.600031) can0 0990CD3F#R4
(1684957150.600130) can0 252#R7
(1684957150.600175) can0 04C89349#157344E7BED44C
(1684957150.600219) can0 0990CD3F#R4
(1684957150.600262) can0 252#R7
(1684957150.600306) can0 04C89349#157344E7BED44C
(1684957150.636078) can0 252#R4
(1684957150.636224) can0 0C889349#R
(1684957150.636271) can0 252#R4
(1684957150.636316) can0 252#R7
(1684957150.636349) can0 0C889349#R
(1684957150.636421) can0 252#R4
(1684957150.636455) can0 252#R7
(1684957150.636500) can0 0C889349#R
(1684957150.636544) can0 252#R4
(1684957150.636589) can0 252#R7
(1684957150.636622) can0 0C889349#R
(1684957150.636667) can0 252#R4
(1684957150.647876) can0 252#R7
(1684957150.647933) can0 252#R4
(1684957150.648158) can0 02489249#R
(1684957150.648212) can0 252#R7
(1684957150.648435) can0 122#R8
(1684957150.648700) can0 04C89349#157344E7BED44C
(1684957150.648814) can0 122#R8
(1684957150.648861) can0 04C89349#157344E7BED44C
(1684957150.648907) can0 252#R7
(1684957150.649774) can0 0990CD3F#R4
(1684957150.649831) can0 252#R7
(1684957150.649985) can0 04C89349#157344E7BED44C
(1684957150.650032) can0 0990CD3F#R4
(1684957150.650129) can0 252#R7
(1684957150.650175) can0 04C89349#157344E7BED44C
(1684957150.650219) can0 0990CD3F#R4
(1684957150.650263) can0 252#R7
(1684957150.650306) can0 04C89349#157344E7BED44C
(1684957150.650394) can0 0990CD3F#R4
(1684957150.686077) can0 252#R7
(1684957150.686215) can0 0C90CD3F#R
(1684957150.686261) can0 252#R7
(1684957150.686305) can0 252#R7
(1684957150.686338) can0 0C90CD3F#R
(1684957150.686382) can0 252#R7
(1684957150.686435) can0 252#R7
(1684957150.686478) can0 252#R7
(1684957150.686521) can0 0C90CD3F#R
(1684957150.686564) can0 252#R7
(1684957150.686608) can0 252#R7
(1684957150.686653) can0 0C90CD3F#R
(1684957150.698121) can0 252#R7
(1684957150.698188) can0 252#R7
(1684957150.698394) can0 02489249#157344E7BE32DB
(1684957150.698449) can0 252#R7
(1684957150.698670) can0 122#R8
(1684957150.698937) can0 04C89349#157344E7BE32DB
(1684957150.699034) can0 122#R8
(1684957150.699082) can0 04C89349#157344E7BE32DB
(1684957150.699128) can0 252#R7
(1684957150.699775) can0 0990CD3F#R4
(1684957150.699832) can0 252#R7
(1684957150.699989) can0 04C89349#157344E7BE32DB
(1684957150.700036) can0 0990CD3F#R4
(1684957150.700132) can0 252#R7
(1684957150.700178) can0 04C89349#157344E7BE32DB
(1684957150.700222) can0 0990CD3F#R4
(1684957150.700265) can0 252#R7
(1684957150.700309) can0 04C89349#157344E7BE32DB
(1684957150.700352) can0 0990CD3F#R4
(1684957150.700396) can0 252#R7
(1684957150.736076) can0 252#R7
(1684957150.736213) can0 322#R
(1684957150.736260) can0 252#R7
(1684957150.736304) can0 0990CD3F#R4
(1684957150.736337) can0 322#R
(1684957150.736558) can0 224#R8
(1684957150.736604) can0 0990CD3F#R4
(1684957150.736648) can0 322#R
(1684957150.736681) can0 224#R8
(1684957150.736724) can0 0990CD3F#R4
(1684957150.748431) can0 322#R
(1684957150.748497) can0 0990CD3F#R4
(1684957150.748698) can0 02489249#R
(1684957150.748745) can0 0990CD3F#R4
(1684957150.748973) can0 122#R8
(1684957150.749240) can0 04C89349#157344E7BED44C
(1684957150.749337) can0 122#R8
(1684957150.749384) can0 04C89349#157344E7BED44C
(1684957150.749429) can0 0990CD3F#R4
(1684957150.749778) can0 0990CD3F#R4
(1684957150.749833) can0 0990CD3F#R4
(1684957150.749992) can0 04C89349#157344E7BED44C
(1684957150.750038) can0 0990CD3F#R4
(1684957150.750136) can0 0990CD3F#R4
(1684957150.750182) can0 04C89349#157344E7BED44C
(1684957150.750226) can0 0990CD3F#R4
(1684957150.750269) can0 0990CD3F#R4
(1684957150.750313) can0 04C89349#157344E7BED44C
(1684957150.750366) can0 0990CD3F#R4
(1684957150.786074) can0 252#R7
(1684957150.786213) can0 0C90CD3F#R
(1684957150.786260) can0 252#R7
(1684957150.786304) can0 0990CD3F#R4
(1684957150.786337) can0 0C90CD3F#R
(1684957150.786380) can0 252#R7
(1684957150.786434) can0 0990CD3F#R4
(1684957150.786625) can0 319#157344E7BED44C84
(1684957150.786673) can0 0990CD3F#R4
(1684957150.798774) can0 0C90CD3F#R
(1684957150.798841) can0 319#157344E7BED44C84
(1684957150.799071) can0 0248923F#R
(1684957150.799125) can0 319#157344E7BED44C84
(1684957150.799349) can0 122#R8
(1684957150.799617) can0 04C89349#157344E7BE32DB
(1684957150.799695) can0 122#R8
(1684957150.799733) can0 319#157344E7BED44C84
(1684957150.799760) can0 04C89349#157344E7BE32DB
(1684957150.799822) can0 122#R8
(1684957150.799849) can0 319#157344E7BED44C84
(1684957150.799886) can0 04C89349#157344E7BE32DB
(1684957150.799913) can0 122#R8
(1684957150.799975) can0 319#157344E7BED44C84
(1684957150.800002) can0 04C89349#157344E7BE32DB
(1684957150.800041) can0 122#R8
(1684957150.800219) can0 319#157344E7BED44C84
(1684957150.800265) can0 122#R8
(1684957150.800363) can0 04C89349#157344E7BE32DB
(1684957150.800410) can0 319#157344E7BED44C84
(1684957150.800454) can0 122#R8
(1684957150.800497) can0 04C89349#157344E7BE32DB
(1684957150.800541) can0 319#157344E7BED44C84
(1684957150.800585) can0 122#R8
(1684957150.800629) can0 04C89349#157344E7BE32DB
(1684957150.836260) can0 252#R8
(1684957150.836398) can0 0C889349#R
(1684957150.836445) can0 252#R8
(1684957150.836489) can0 122#R8
(1684957150.836522) can0 0C889349#R
(1684957150.836566) can0 252#R8
(1684957150.836619) can0 122#R8
(1684957150.836808) can0 319#157344E7BED44C84
(1684957150.836856) can0 122#R8
(1684957150.849043) can0 0C889349#R
(1684957150.849109) can0 319#157344E7BED44C84
(1684957150.849329) can0 02489249#R
(1684957150.849386) can0 319#157344E7BED44C84
(1684957150.849610) can0 122#R8
(1684957150.849683) can0 02489249#R
(1684957150.849730) can0 319#157344E7BED44C84
(1684957150.849764) can0 122#R8
(1684957150.849837) can0 02489249#R
(1684957150.849882) can0 319#157344E7BED44C84
(1684957150.849926) can0 122#R8
(1684957150.849961) can0 02489249#R
(1684957150.850005) can0 319#157344E7BED44C84
(1684957150.850039) can0 122#R8
(1684957150.850083) can0 02489249#R
(1684957150.850118) can0 319#157344E7BED44C84
(1684957150.850162) can0 122#R8
(1684957150.850207) can0 02489249#R
(1684957150.850405) can0 319#157344E7BED44C84
(1684957150.850452) can0 122#R8
(1684957150.850547) can0 02489249#R
(1684957150.850593) can0 319#157344E7BED44C84
(1684957150.850637) can0 122#R8
(1684957150.850681) can0 02489249#R
(1684957150.850726) can0 319#157344E7BED44C84
(1684957150.850769) can0 122#R8
(1684957150.886075) can0 252#R
(1684957150.886214) can0 321#
(1684957150.886260) can0 252#R
(1684957150.886305) can0 122#R8
(1684957150.886339) can0 321#
(1684957150.886552) can0 224#R8
(1684957150.886598) can0 122#R8
(1684957150.886642) can0 321#
(1684957150.886686) can0 224#R8
(1684957150.886729) can0 122#R8
(1684957150.899308) can0 321#
(1684957150.899375) can0 122#R8
(1684957150.899607) can0 02489249#R
(1684957150.899690) can0 122#R8
(1684957150.899737) can0 224#R8
(1684957150.899782) can0 02489249#R
(1684957150.899826) can0 122#R8
(1684957150.899870) can0 224#R8
(1684957150.899915) can0 02489249#R
(1684957150.899949) can0 122#R8
(1684957150.899993) can0 224#R8
(1684957150.900027) can0 02489249#R
(1684957150.900071) can0 122#R8
(1684957150.900105) can0 224#R8
(1684957150.900177) can0 02489249#R
(1684957150.900211) can0 122#R8
(1684957150.900283) can0 224#R8
(1684957150.900585) can0 02489249#4B7F
(1684957150.900632) can0 224#R8
(1684957150.900676) can0 122#R8
(1684957150.900710) can0 02489249#4B7F
(1684957150.900781) can0 224#R8
(1684957150.900814) can0 122#R8
(1684957150.900857) can0 02489249#4B7F
(1684957150.900892) can0 224#R8
(1684957150.900962) can0 122#R8
(1684957150.900997) can0 02489249#4B7F
(1684957150.901057) can0 224#R8
(1684957150.901091) can0 122#R8
(1684957150.936073) can0 252#R2
(1684957150.936213) can0 324#R
(1684957150.936259) can0 252#R2
(1684957150.936303) can0 122#R8
(1684957150.936337) can0 324#R
(1684957150.936380) can0 252#R2
(1684957150.936433) can0 122#R8
(1684957150.936621) can0 319#4B7F44E7BED44C84
(1684957150.936667) can0 122#R8
(1684957150.949576) can0 324#R
(1684957150.949653) can0 319#4B7F44E7BED44C84
(1684957150.949701) can0 324#R
(1684957150.949745) can0 122#R8
(1684957150.949779) can0 319#4B7F44E7BED44C84
(1684957150.949823) can0 324#R
(1684957150.949866) can0 122#R8
(1684957150.949909) can0 319#4B7F44E7BED44C84
(1684957150.949963) can0 324#R
(1684957150.950098) can0 319#4B7F44E7BED44C84
(1684957150.950159) can0 324#R
(1684957150.950205) can0 122#R8
(1684957150.950240) can0 319#4B7F44E7BED44C84
(1684957150.950312) can0 324#R
(1684957150.950356) can0 122#R8
(1684957150.950401) can0 319#4B7F44E7BED44C84
(1684957150.950435) can0 324#R
(1684957150.950479) can0 122#R8
(1684957150.950514) can0 319#4B7F44E7BED44C84
(1684957150.950559) can0 324#R
(1684957150.950593) can0 122#R8
(1684957150.950667) can0 319#4B7F44E7BED44C84
(1684957150.950701) can0 324#R
(1684957150.950762) can0 122#R8
(1684957150.950806) can0 2B9#4B7F44E7BED44C84
(1684957150.950851) can0 324#R
(1684957150.950895) can0 122#R8
(1684957150.950939) can0 2B9#4B7F44E7BED44C84
(1684957150.950984) can0 324#R
(1684957150.951028) can0 122#R8
(1684957150.951269) can0 12B8ECD7#4B7F44E7BED44C84
(1684957150.986081) can0 252#R8
(1684957150.986220) can0 0C98ECD7#R
(1684957150.986267) can0 252#R8
(1684957150.986311) can0 324#R
(1684957150.986344) can0 0C98ECD7#R
(1684957150.986387) can0 252#R8
(1684957150.986440) can0 324#R
(1684957150.986484) can0 252#R8
(1684957150.986527) can0 0C98ECD7#R
(1684957150.986570) can0 324#R
(1684957150.986613) can0 252#R8
(1684957150.986656) can0 0C98ECD7#R
(1684957150.999799) can0 0990CD3F#R4
(1684957150.999856) can0 252#R8
(1684957151.000010) can0 0C98ECD7#R
(1684957151.000057) can0 0990CD3F#R4
(1684957151.000101) can0 252#R8
(1684957151.000144) can0 0C98ECD7#R
(1684957151.000188) can0 0990CD3F#R4
(1684957151.000221) can0 252#R8
(1684957151.000264) can0 0C98ECD7#R
(1684957151.000297) can0 0990CD3F#R4
(1684957151.000368) can0 252#R8
(1684957151.000401) can0 0C98ECD7#R
(1684957151.000472) can0 0990CD3F#R4
(1684957151.000505) can0 252#R8
(1684957151.000548) can0 0C98ECD7#R
(1684957151.000591) can0 0990CD3F#R4
(1684957151.000661) can0 252#R8
(1684957151.000714) can0 0C98ECD7#R
(1684957151.000759) can0 252#R8
(1684957151.000802) can0 0990CD3F#R4
(1684957151.000846) can0 0C98ECD7#R
(1684957151.000889) can0 252#R8
(1684957151.000922) can0 0990CD3F#R4
(1684957151.001212) can0 04C89349#4B7F44E7BED44C
(1684957151.001311) can0 252#R8
(1684957151.001357) can0 04C89349#4B7F44E7BED44C
(1684957151.001401) can0 0990CD3F#R4
(1684957151.036275) can0 252#R8
(1684957151.036416) can0 0C90CD3F#R
(1684957151.036462) can0 252#R8
(1684957151.036507) can0 04C89349#4B7F44E7BED44C
(1684957151.036540) can0 0C90CD3F#R
(1684957151.036583) can0 252#R8
(1684957151.036637) can0 04C89349#4B7F44E7BED44C
(1684957151.036680) can0 252#R8
(1684957151.036724) can0 0C90CD3F#R
(1684957151.036767) can0 04C89349#4B7F44E7BED44C
(1684957151.036811) can0 252#R8
(1684957151.036855) can0 0C90CD3F#R
(1684957151.049814) can0 0990CD3F#R4
(1684957151.049859) can0 252#R8
(1684957151.050015) can0 0C90CD3F#R
(1684957151.050063) can0 0990CD3F#R4
(1684957151.050158) can0 252#R8
(1684957151.050204) can0 0C90CD3F#R
(1684957151.050248) can0 0990CD3F#R4
(1684957151.050292) can0 252#R8
(1684957151.050401) can0 0C90CD3F#R
(1684957151.050448) can0 0990CD3F#R4
(1684957151.050492) can0 252#R8
(1684957151.050535) can0 0C90CD3F#R
(1684957151.050579) can0 0990CD3F#R4
(1684957151.050614) can0 252#R8
(1684957151.050658) can0 0C90CD3F#R
(1684957151.050691) can0 0990CD3F#R4
(1684957151.050762) can0 252#R8
(1684957151.051006) can0 122#R8
(1684957151.051251) can0 04C89349#157344E7BED44C
(1684957151.051344) can0 122#R8
(1684957151.051390) can0 04C89349#157344E7BED44C
(1684957151.051434) can0 0990CD3F#R4
(1684957151.086070) can0 252#R8
(1684957151.086209) can0 0C90CD3F#R
(1684957151.086256) can0 252#R8
(1684957151.086300) can0 04C89349#157344E7BED44C
(1684957151.086333) can0 0C90CD3F#R
(1684957151.086377) can0 252#R8
(1684957151.086430) can0 04C89349#157344E7BED44C
(1684957151.086474) can0 252#R8
(1684957151.086517) can0 0C90CD3F#R
(1684957151.086561) can0 04C89349#157344E7BED44C
(1684957151.086604) can0 252#R8
(1684957151.086647) can0 0C90CD3F#R
(1684957151.099807) can0 0990CD3F#R4
(1684957151.099863) can0 252#R8
(1684957151.100019) can0 0C90CD3F#R
(1684957151.100065) can0 0990CD3F#R4
(1684957151.100164) can0 252#R8
(1684957151.100210) can0 0C90CD3F#R
(1684957151.100254) can0 0990CD3F#R4
(1684957151.100297) can0 252#R8
(1684957151.100341) can0 0C90CD3F#R
(1684957151.100384) can0 0990CD3F#R4
(1684957151.100427) can0 252#R8
(1684957151.100471) can0 0C90CD3F#R
(1684957151.100553) can0 0990CD3F#R4
(1684957151.100764) can0 0248923F#R8
(1684957151.100810) can0 0990CD3F#R4
(1684957151.101042) can0 122#R8
(1684957151.101307) can0 04C89349#157344E7BE32DB
(1684957151.101354) can0 122#R8
(1684957151.101398) can0 0990CD3F#R4
(1684957151.101452) can0 04C89349#157344E7BE32DB
(1684957151.136303) can0 252#R4
(1684957151.136442) can0 0C889349#R
(1684957151.136489) can0 252#R4
(1684957151.136532) can0 122#R8
(1684957151.136566) can0 0C889349#R
(1684957151.136609) can0 252#R4
(1684957151.136662) can0 122#R8
(1684957151.136705) can0 252#R4
(1684957151.136748) can0 0C889349#R
(1684957151.136791) can0 122#R8
(1684957151.136835) can0 252#R4
(1684957151.136878) can0 0C889349#R
(1684957151.149821) can0 0990CD3F#R4
(1684957151.149866) can0 252#R4
(1684957151.150027) can0 0C889349#R
(1684957151.150073) can0 0990CD3F#R4
(1684957151.150168) can0 252#R4
(1684957151.150214) can0 0C889349#R
(1684957151.150258) can0 0990CD3F#R4
(1684957151.150302) can0 252#R4
(1684957151.150345) can0 0C889349#R
(1684957151.150613) can0 0990CD3F#R4
(1684957151.150670) can0 0C889349#R
(1684957151.150886) can0 0248923F#R4
(1684957151.150932) can0 0C889349#R
(1684957151.151169) can0 122#R8
(1684957151.151432) can0 04C89349#4B7F44E7BED44C
(1684957151.151542) can0 122#R8
(1684957151.151588) can0 04C89349#4B7F44E7BED44C
(1684957151.151632) can0 0C889349#R
(1684957151.186068) can0 252#R8
(1684957151.186360) can0 0C889349#R
(1684957151.186414) can0 252#R8
(1684957151.186460) can0 04C89349#4B7F44E7BED44C
(1684957151.186495) can0 0C889349#R
(1684957151.186567) can0 252#R8
(1684957151.186602) can0 04C89349#4B7F44E7BED44C
(1684957151.186646) can0 0C889349#R
(1684957151.186680) can0 252#R8
(1684957151.186724) can0 04C89349#4B7F44E7BED44C
(1684957151.186759) can0 0C889349#R
(1684957151.186803) can0 252#R8
(1684957151.199815) can0 0990CD3F#R4
(1684957151.199871) can0 252#R8
(1684957151.200025) can0 0C889349#R
(1684957151.200071) can0 0990CD3F#R4
(1684957151.200171) can0 252#R8
(1684957151.200217) can0 0C889349#R
(1684957151.200261) can0 0990CD3F#R4
(1684957151.200304) can0 252#R8
(1684957151.200347) can0 0C889349#R
(1684957151.200390) can0 0990CD3F#R4
(1684957151.200869) can0 252#R8
(1684957151.200935) can0 0C889349#R
(1684957151.201183) can0 0248923F#R8
(1684957151.201237) can0 0C889349#R
(1684957151.201459) can0 122#R8
(1684957151.201725) can0 04C89349#157344E7BED44C
(1684957151.201860) can0 122#R8
(1684957151.201906) can0 04C89349#157344E7BED44C
(1684957151.201950) can0 0C889349#R
(1684957151.236066) can0 252#R8
(1684957151.236206) can0 0C889349#R
(1684957151.236253) can0 252#R8
(1684957151.236297) can0 04C89349#157344E7BED44C
(1684957151.236330) can0 0C889349#R
(1684957151.236374) can0 252#R8
(1684957151.236428) can0 04C89349#157344E7BED44C
(1684957151.236471) can0 252#R8
(1684957151.236514) can0 0C889349#R
(1684957151.236558) can0 04C89349#157344E7BED44C
(1684957151.236601) can0 252#R8
(1684957151.236644) can0 0C889349#R
(1684957151.249832) can0 0990CD3F#R4
(1684957151.249877) can0 252#R8
(1684957151.250039) can0 0C889349#R
(1684957151.250085) can0 0990CD3F#R4
(1684957151.250180) can0 252#R8
(1684957151.250225) can0 0C889349#R
(1684957151.250269) can0 0990CD3F#R4
(1684957151.250313) can0 252#R8
(1684957151.250356) can0 0C889349#R
(1684957151.250399) can0 0990CD3F#R4
(1684957151.251109) can0 252#R8
(1684957151.251175) can0 0C889349#R
(1684957151.251383) can0 0248923F#R8
(1684957151.251437) can0 0C889349#R
(1684957151.251661) can0 122#R8
(1684957151.251929) can0 04C89349#4B7F44E7BED44C
(1684957151.252027) can0 122#R8
(1684957151.252075) can0 04C89349#4B7F44E7BED44C
(1684957151.252120) can0 0C889349#R
(1684957151.286151) can0 252#R8
(1684957151.286290) can0 0C889349#R
(1684957151.286336) can0 252#R8
(1684957151.286380) can0 04C89349#4B7F44E7BED44C
(1684957151.286414) can0 0C889349#R
(1684957151.286457) can0 252#R8
(1684957151.286511) can0 04C89349#4B7F44E7BED44C
(1684957151.286555) can0 252#R8
(1684957151.286598) can0 0C889349#R
(1684957151.286641) can0 04C89349#4B7F44E7BED44C
(1684957151.286685) can0 252#R8
(1684957151.286728) can0 0C889349#R
(1684957151.299824) can0 0990CD3F#R4
(1684957151.299880) can0 252#R8
(1684957151.300034) can0 0C889349#R
(1684957151.300080) can0 0990CD3F#R4
(1684957151.300179) can0 252#R8
(1684957151.300224) can0 0C889349#R
(1684957151.300268) can0 0990CD3F#R4
(1684957151.300311) can0 252#R8
(1684957151.300355) can0 0C889349#R
(1684957151.300408) can0 0990CD3F#R4
(1684957151.301444) can0 0C889349#R
(1684957151.301511) can0 0990CD3F#R4
(1684957151.301744) can0 02489249#R
(1684957151.301799) can0 0990CD3F#R4
(1684957151.302022) can0 122#R8
(1684957151.302289) can0 04C89349#157344E7BE32DB
(1684957151.302400) can0 122#R8
(1684957151.302446) can0 04C89349#157344E7BE32DB
(1684957151.302490) can0 0990CD3F#R4
(1684957151.336064) can0 252#R8
(1684957151.336342) can0 0C90CD3F#R
(1684957151.336396) can0 252#R8
(1684957151.336442) can0 04C89349#157344E7BE32DB
(1684957151.336476) can0 0C90CD3F#R
(1684957151.336548) can0 252#R8
(1684957151.336592) can0 04C89349#157344E7BE32DB
(1684957151.336637) can0 0C90CD3F#R
(1684957151.336671) can0 252#R8
(1684957151.336715) can0 04C89349#157344E7BE32DB
(1684957151.336749) can0 0C90CD3F#R
(1684957151.336793) can0 252#R8
(1684957151.349838) can0 0990CD3F#R4
(1684957151.349883) can0 252#R8
(1684957151.350036) can0 0C90CD3F#R
(1684957151.350084) can0 0990CD3F#R4
(1684957151.350180) can0 252#R8
(1684957151.350226) can0 0C90CD3F#R
(1684957151.350270) can0 0990CD3F#R4
(1684957151.350313) can0 252#R8
(1684957151.350356) can0 0C90CD3F#R
(1684957151.350441) can0 0990CD3F#R4
(1684957151.351703) can0 0C90CD3F#R
(1684957151.351769) can0 0990CD3F#R4
(1684957151.351971) can0 0248923F#R
(1684957151.352017) can0 0990CD3F#R4
(1684957151.352249) can0 122#R8
(1684957151.352517) can0 04C89349#4B7F44E7BED44C
(1684957151.352615) can0 122#R8
(1684957151.352662) can0 04C89349#4B7F44E7BED44C
(1684957151.352707) can0 0990CD3F#R4
(1684957151.386062) can0 252#R8
(1684957151.386200) can0 0C90CD3F#R
(1684957151.386246) can0 252#R8
(1684957151.386291) can0 04C89349#4B7F44E7BED44C
(1684957151.386324) can0 0C90CD3F#R
(1684957151.386367) can0 252#R8
(1684957151.386421) can0 04C89349#4B7F44E7BED44C
(1684957151.386464) can0 252#R8
(1684957151.386507) can0 0C90CD3F#R
(1684957151.386551) can0 04C89349#4B7F44E7BED44C
(1684957151.386594) can0 252#R8
(1684957151.386637) can0 0C90CD3F#R
(1684957151.399828) can0 0990CD3F#R4
(1684957151.399884) can0 252#R8
(1684957151.400041) can0 0C90CD3F#R
(1684957151.400087) can0 0990CD3F#R4
(1684957151.400185) can0 252#R8
(1684957151.400231) can0 0C90CD3F#R
(1684957151.400274) can0 0990CD3F#R4
(1684957151.400318) can0 252#R8
(1684957151.400361) can0 0C90CD3F#R
(1684957151.400404) can0 0990CD3F#R4
(1684957151.400447) can0 252#R8
(1684957151.402012) can0 0C90CD3F#R
(1684957151.402080) can0 252#R8
(1684957151.402284) can0 0248923F#R
(1684957151.402338) can0 252#R8
(1684957151.402559) can0 122#R8
(1684957151.402827) can0 04C89349#157344E7BE32DB
(1684957151.402926) can0 122#R8
(1684957151.402973) can0 04C89349#157344E7BE32DB
(1684957151.403018) can0 252#R8
(1684957151.436063) can0 252#R8
(1684957151.436203) can0 322#R
(1684957151.436249) can0 252#R8
(1684957151.436294) can0 04C89349#157344E7BE32DB
(1684957151.436327) can0 322#R
(1684957151.436371) can0 252#R8
(1684957151.436424) can0 04C89349#157344E7BE32DB
(1684957151.436467) can0 252#R8
(1684957151.436511) can0 322#R
(1684957151.436554) can0 04C89349#157344E7BE32DB
(1684957151.436597) can0 252#R8
(1684957151.436640) can0 322#R
(1684957151.449846) can0 0990CD3F#R4
(1684957151.449892) can0 252#R8
(1684957151.450046) can0 322#R
(1684957151.450094) can0 0990CD3F#R4
(1684957151.450188) can0 252#R8
(1684957151.450234) can0 322#R
(1684957151.450278) can0 0990CD3F#R4
(1684957151.450321) can0 252#R8
(1684957151.450364) can0 322#R
(1684957151.450408) can0 0990CD3F#R4
(1684957151.450451) can0 252#R8
(1684957151.452328) can0 322#R
(1684957151.452394) can0 252#R8
(1684957151.452605) can0 0248923F#R
(1684957151.452659) can0 252#R8
(1684957151.452881) can0 122#R8
(1684957151.453150) can0 04C89349#157344E7BED44C
(1684957151.453249) can0 122#R8
(1684957151.453296) can0 04C89349#157344E7BED44C
(1684957151.453341) can0 252#R8
(1684957151.486262) can0 252#R8
(1684957151.486400) can0 322#R
(1684957151.486447) can0 252#R8
(1684957151.486491) can0 04C89349#157344E7BED44C
(1684957151.486525) can0 322#R
(1684957151.486568) can0 252#R8
(1684957151.486622) can0 04C89349#157344E7BED44C
(1684957151.486812) can0 319#157344E7BE32DB7E
(1684957151.486858) can0 04C89349#157344E7BED44C
(1684957151.499840) can0 0990CD3F#R4
(1684957151.499897) can0 319#157344E7BE32DB7E
(1684957151.500049) can0 04C89349#157344E7BED44C
(1684957151.500096) can0 0990CD3F#R4
(1684957151.500195) can0 319#157344E7BE32DB7E
(1684957151.500241) can0 04C89349#157344E7BED44C
(1684957151.500285) can0 0990CD3F#R4
(1684957151.500328) can0 319#157344E7BE32DB7E
(1684957151.500372) can0 04C89349#157344E7BED44C
(1684957151.500415) can0 0990CD3F#R4
(1684957151.502695) can0 319#157344E7BE32DB7E
(1684957151.502761) can0 04C89349#157344E7BED44C
(1684957151.502993) can0 0248923F#157344E7BE32DB7E
(1684957151.503048) can0 04C89349#157344E7BED44C
(1684957151.503271) can0 122#R8
(1684957151.503539) can0 04C89349#157344E7BE32DB
(1684957151.503651) can0 122#R8
(1684957151.503697) can0 04C89349#157344E7BE32DB
(1684957151.503741) can0 04C89349#157344E7BED44C
(1684957151.536060) can0 252#R8
(1684957151.536199) can0 0C889349#R
(1684957151.536245) can0 252#R8
(1684957151.536289) can0 04C89349#157344E7BE32DB
(1684957151.536323) can0 0C889349#R
(1684957151.536537) can0 224#R8
(1684957151.536585) can0 04C89349#157344E7BE32DB
(1684957151.536630) can0 0C889349#R
(1684957151.536664) can0 224#R8
(1684957151.536709) can0 04C89349#157344E7BE32DB
(1684957151.549852) can0 0990CD3F#R4
(1684957151.549898) can0 04C89349#157344E7BE32DB
(1684957151.550053) can0 224#R8
(1684957151.550100) can0 0990CD3F#R4
(1684957151.550196) can0 04C89349#157344E7BE32DB
(1684957151.550242) can0 224#R8
(1684957151.550286) can0 0990CD3F#R4
(1684957151.550330) can0 04C89349#157344E7BE32DB
(1684957151.550374) can0 224#R8
(1684957151.550417) can0 0990CD3F#R4
(1684957151.552961) can0 04C89349#157344E7BE32DB
(1684957151.553028) can0 224#R8
(1684957151.553233) can0 02489249#157344E7BE32DB
(1684957151.553287) can0 224#R8
(1684957151.553507) can0 122#R8
(1684957151.553775) can0 04C89349#157344E7BE32DB
(1684957151.553872) can0 122#R8
(1684957151.553919) can0 04C89349#157344E7BE32DB
(1684957151.553964) can0 224#R8
(1684957151.586061) can0 252#R8
(1684957151.586198) can0 324#R
(1684957151.586244) can0 252#R8
(1684957151.586288) can0 04C89349#157344E7BE32DB
(1684957151.586322) can0 324#R
(1684957151.586365) can0 252#R8
(1684957151.586418) can0 04C89349#157344E7BE32DB
(1684957151.586611) can0 319#157344E7BED44C84
(1684957151.586658) can0 04C89349#157344E7BE32DB
(1684957151.599849) can0 0990CD3F#R4
(1684957151.599906) can0 319#157344E7BED44C84
(1684957151.600060) can0 04C89349#157344E7BE32DB
(1684957151.600107) can0 0990CD3F#R4
(1684957151.600206) can0 319#157344E7BED44C84
(1684957151.600252) can0 04C89349#157344E7BE32DB
(1684957151.600296) can0 0990CD3F#R4
(1684957151.600339) can0 319#157344E7BED44C84
(1684957151.600383) can0 04C89349#157344E7BE32DB
(1684957151.600426) can0 0990CD3F#R4
(1684957151.600470) can0 319#157344E7BED44C84
(1684957151.603290) can0 04C89349#157344E7BE32DB
(1684957151.603356) can0 319#157344E7BED44C84
(1684957151.603585) can0 02489249#157344E7BE32DB
(1684957151.603640) can0 319#157344E7BED44C84
(1684957151.603862) can0 122#R8
(1684957151.604127) can0 04C89349#157344E7BE32DB
(1684957151.604260) can0 122#R8
(1684957151.604307) can0 04C89349#157344E7BE32DB
(1684957151.604351) can0 319#157344E7BED44C84
(1684957151.636092) can0 252#R8
(1684957151.636230) can0 321#
(1684957151.636276) can0 252#R8
(1684957151.636320) can0 04C89349#157344E7BE32DB
(1684957151.636354) can0 321#
(1684957151.636398) can0 252#R8
(1684957151.636451) can0 04C89349#157344E7BE32DB
(1684957151.636646) can0 319#4B7F44E7BED44C84
(1684957151.636693) can0 04C89349#157344E7BE32DB
(1684957151.649859) can0 0990CD3F#R4
(1684957151.649904) can0 319#4B7F44E7BED44C84
(1684957151.650067) can0 04C89349#157344E7BE32DB
(1684957151.650114) can0 0990CD3F#R4
(1684957151.650203) can0 319#4B7F44E7BED44C84
(1684957151.650249) can0 04C89349#157344E7BE32DB
(1684957151.650293) can0 0990CD3F#R4
(1684957151.650337) can0 319#4B7F44E7BED44C84
(1684957151.650380) can0 04C89349#157344E7BE32DB
(1684957151.653556) can0 0990CD3F#R4
(1684957151.653623) can0 04C89349#157344E7BE32DB
(1684957151.653848) can0 0248923F#R4
(1684957151.653902) can0 04C89349#157344E7BE32DB
(1684957151.654122) can0 122#R8
(1684957151.654387) can0 04C89349#157344E7BED44C
(1684957151.654497) can0 122#R8
(1684957151.654543) can0 04C89349#157344E7BED44C
(1684957151.654587) can0 04C89349#157344E7BE32DB
(1684957151.686057) can0 252#R8
(1684957151.686349) can0 0C889349#R
(1684957151.686403) can0 252#R8
(1684957151.686450) can0 04C89349#157344E7BED44C
(1684957151.686485) can0 0C889349#R
(1684957151.686557) can0 252#R8
(1684957151.686601) can0 04C89349#157344E7BED44C
(1684957151.686759) can0 319#157344E7BE32DB7E
(1684957151.686805) can0 252#R8
(1684957151.699856) can0 0990CD3F#R4
(1684957151.699912) can0 319#157344E7BE32DB7E
(1684957151.700065) can0 252#R8
(1684957151.700111) can0 0990CD3F#R4
(1684957151.700210) can0 319#157344E7BE32DB7E
(1684957151.700256) can0 252#R8
(1684957151.700300) can0 0990CD3F#R4
(1684957151.700343) can0 319#157344E7BE32DB7E
(1684957151.700387) can0 252#R8
(1684957151.703868) can0 0990CD3F#R4
(1684957151.703934) can0 252#R8
(1684957151.704138) can0 0248923F#R4
(1684957151.704192) can0 252#R8
(1684957151.704416) can0 122#R8
(1684957151.704682) can0 04C89349#157344E7BED44C
(1684957151.704778) can0 122#R8
(1684957151.704825) can0 04C89349#157344E7BED44C
(1684957151.704871) can0 252#R8
(1684957151.736057) can0 252#R8
(1684957151.736195) can0 322#R
(1684957151.736241) can0 252#R8
(1684957151.736285) can0 04C89349#157344E7BED44C
(1684957151.736319) can0 322#R
(1684957151.736362) can0 252#R8
(1684957151.736415) can0 04C89349#157344E7BED44C
(1684957151.736458) can0 252#R8
(1684957151.736501) can0 322#R
(1684957151.736545) can0 04C89349#157344E7BED44C
(1684957151.736588) can0 252#R8
(1684957151.736631) can0 322#R
(1684957151.749868) can0 0990CD3F#R4
(1684957151.749913) can0 252#R8
(1684957151.750067) can0 322#R
(1684957151.750114) can0 0990CD3F#R4
(1684957151.750210) can0 252#R8
(1684957151.750256) can0 322#R
(1684957151.750300) can0 0990CD3F#R4
(1684957151.750343) can0 252#R8
(1684957151.750386) can0 322#R
(1684957151.750439) can0 0990CD3F#R4
(1684957151.754172) can0 322#R
(1684957151.754238) can0 0990CD3F#R4
(1684957151.754442) can0 0248923F#R
(1684957151.754496) can0 0990CD3F#R4
(1684957151.754720) can0 122#R8
(1684957151.754986) can0 04C89349#4B7F44E7BED44C
(1684957151.755082) can0 122#R8
(1684957151.755129) can0 04C89349#4B7F44E7BED44C
(1684957151.755174) can0 0990CD3F#R4
(1684957151.786055) can0 252#R8
(1684957151.786193) can0 0C90CD3F#R
(1684957151.786239) can0 252#R8
(1684957151.786283) can0 04C89349#4B7F44E7BED44C
(1684957151.786317) can0 0C90CD3F#R
(1684957151.786360) can0 252#R8
(1684957151.786414) can0 04C89349#4B7F44E7BED44C
(1684957151.786457) can0 252#R8
(1684957151.786500) can0 0C90CD3F#R
(1684957151.786544) can0 04C89349#4B7F44E7BED44C
(1684957151.786587) can0 252#R8
(1684957151.786630) can0 0C90CD3F#R
(1684957151.799860) can0 0990CD3F#R4
(1684957151.799916) can0 252#R8
(1684957151.800071) can0 0C90CD3F#R
(1684957151.800117) can0 0990CD3F#R4
(1684957151.800214) can0 252#R8
(1684957151.800259) can0 0C90CD3F#R
(1684957151.800303) can0 0990CD3F#R4
(1684957151.800347) can0 252#R8
(1684957151.800390) can0 0C90CD3F#R
(1684957151.800443) can0 0990CD3F#R4
(1684957151.804473) can0 0C90CD3F#R
(1684957151.804539) can0 0990CD3F#R4
(1684957151.804746) can0 0248923F#R
(1684957151.804800) can0 0990CD3F#R4
(1684957151.805024) can0 122#R8
(1684957151.805290) can0 04C89349#157344E7BED44C
(1684957151.805387) can0 122#R8
(1684957151.805434) can0 04C89349#157344E7BED44C
(1684957151.805480) can0 0990CD3F#R4
(1684957151.836056) can0 252#R8
(1684957151.836352) can0 0C90CD3F#R
(1684957151.836406) can0 252#R8
(1684957151.836452) can0 04C89349#157344E7BED44C
(1684957151.836487) can0 0C90CD3F#R
(1684957151.836559) can0 252#R8
(1684957151.836593) can0 04C89349#157344E7BED44C
(1684957151.836638) can0 0C90CD3F#R
(1684957151.836672) can0 252#R8
(1684957151.836743) can0 04C89349#157344E7BED44C
(1684957151.836778) can0 0C90CD3F#R
(1684957151.836822) can0 252#R8
(1684957151.849874) can0 0990CD3F#R4
(1684957151.849919) can0 252#R8
(1684957151.850072) can0 0C90CD3F#R
(1684957151.850121) can0 0990CD3F#R4
(1684957151.850165) can0 252#R8
(1684957151.850210) can0 0C90CD3F#R
(1684957151.850254) can0 0990CD3F#R4
(1684957151.850288) can0 252#R8
(1684957151.850333) can0 0C90CD3F#R
(1684957151.850367) can0 0990CD3F#R4
(1684957151.850411) can0 252#R8
(1684957151.850455) can0 0C90CD3F#R
(1684957151.850500) can0 0990CD3F#R4
(1684957151.854777) can0 252#R8
(1684957151.854843) can0 0990CD3F#R4
(1684957151.855052) can0 02489249#R8
(1684957151.855106) can0 0990CD3F#R4
(1684957151.855329) can0 122#R8
(1684957151.855596) can0 04C89349#157344E7BE32DB
(1684957151.855693) can0 122#R8
(1684957151.855740) can0 04C89349#157344E7BE32DB
(1684957151.855786) can0 0990CD3F#R4
(1684957151.886054) can0 252#R8
(1684957151.886192) can0 0C90CD3F#R
(1684957151.886239) can0 252#R8
(1684957151.886283) can0 04C89349#157344E7BE32DB
(1684957151.886316) can0 0C90CD3F#R
(1684957151.886360) can0 252#R8
(1684957151.886413) can0 04C89349#157344E7BE32DB
(1684957151.886457) can0 252#R8
(1684957151.886500) can0 0C90CD3F#R
(1684957151.886544) can0 04C89349#157344E7BE32DB
(1684957151.886587) can0 252#R8
(1684957151.886630) can0 0C90CD3F#R
(1684957151.899871) can0 0990CD3F#R4
(1684957151.899927) can0 252#R8
(1684957151.900079) can0 0C90CD3F#R
(1684957151.900125) can0 0990CD3F#R4
(1684957151.900169) can0 252#R8
(1684957151.900213) can0 0C90CD3F#R
(1684957151.900256) can0 0990CD3F#R4
(1684957151.900289) can0 252#R8
(1684957151.900332) can0 0C90CD3F#R
(1684957151.900375) can0 0990CD3F#R4
(1684957151.900419) can0 252#R8
(1684957151.900462) can0 0C90CD3F#R
(1684957151.900505) can0 0990CD3F#R4
(1684957151.905073) can0 252#R8
(1684957151.905138) can0 0990CD3F#R4
(1684957151.905348) can0 0248923F#R8
(1684957151.905402) can0 0990CD3F#R4
(1684957151.905624) can0 122#R8
(1684957151.905892) can0 04C89349#4B7F44E7BED44C
(1684957151.905989) can0 122#R8
(1684957151.906036) can0 04C89349#4B7F44E7BED44C
(1684957151.906081) can0 0990CD3F#R4
(1684957151.936054) can0 252#R8
(1684957151.936336) can0 0C90CD3F#R
(1684957151.936390) can0 252#R8
(1684957151.936436) can0 04C89349#4B7F44E7BED44C
(1684957151.936471) can0 0C90CD3F#R
(1684957151.936543) can0 252#R8
(1684957151.936578) can0 04C89349#4B7F44E7BED44C
(1684957151.936622) can0 0C90CD3F#R
(1684957151.936656) can0 252#R8
(1684957151.936727) can0 04C89349#4B7F44E7BED44C
(1684957151.936762) can0 0C90CD3F#R
(1684957151.936806) can0 252#R8
(1684957151.949885) can0 0990CD3F#R4
(1684957151.949930) can0 252#R8
(1684957151.950082) can0 0C90CD3F#R
(1684957151.950128) can0 0990CD3F#R4
(1684957151.950172) can0 252#R8
(1684957151.950215) can0 0C90CD3F#R
(1684957151.950259) can0 0990CD3F#R4
(1684957151.950292) can0 252#R8
(1684957151.950335) can0 0C90CD3F#R
(1684957151.950379) can0 0990CD3F#R4
(1684957151.950422) can0 252#R8
(1684957151.950465) can0 0C90CD3F#R
(1684957151.950508) can0 0990CD3F#R4
(1684957151.955377) can0 252#R8
(1684957151.955443) can0 0990CD3F#R4
(1684957151.955647) can0 0248923F#R8
(1684957151.955701) can0 0990CD3F#R4
(1684957151.955923) can0 122#R8
(1684957151.956190) can0 04C89349#157344E7BED44C
(1684957151.956287) can0 122#R8
(1684957151.956334) can0 04C89349#157344E7BED44C
(1684957151.956379) can0 0990CD3F#R4
(1684957151.986051) can0 252#R8
(1684957151.986190) can0 0C90CD3F#R
(1684957151.986237) can0 252#R8
(1684957151.986281) can0 04C89349#157344E7BED44C
(1684957151.986315) can0 0C90CD3F#R
(1684957151.986359) can0 252#R8
(1684957151.986412) can0 04C89349#157344E7BED44C
(1684957151.986455) can0 252#R8
(1684957151.986499) can0 0C90CD3F#R
(1684957151.986542) can0 04C89349#157344E7BED44C
(1684957151.986585) can0 252#R8
(1684957151.986629) can0 0C90CD3F#R
(1684957151.999875) can0 0990CD3F#R4
(1684957151.999932) can0 252#R8
(1684957152.000085) can0 0C90CD3F#R
(1684957152.000131) can0 0990CD3F#R4
(1684957152.000231) can0 252#R8
(1684957152.000276) can0 0C90CD3F#R
(1684957152.000320) can0 0990CD3F#R4
(1684957152.000364) can0 252#R8
(1684957152.000407) can0 0C90CD3F#R
(1684957152.000450) can0 0990CD3F#R4
(1684957152.005691) can0 252#R8
(1684957152.005757) can0 0C90CD3F#R
(1684957152.005988) can0 0248923F#R8
(1684957152.006042) can0 0C90CD3F#R
(1684957152.006279) can0 122#R8
(1684957152.006544) can0 04C89349#157344E7BE32DB
(1684957152.006671) can0 122#R8
(1684957152.006717) can0 04C89349#157344E7BE32DB
(1684957152.006762) can0 0C90CD3F#R
(1684957152.036050) can0 252#R8
(1684957152.036189) can0 0C90CD3F#R
(1684957152.036235) can0 252#R8
(1684957152.036279) can0 04C89349#157344E7BE32DB
(1684957152.036313) can0 0C90CD3F#R
(1684957152.036357) can0 252#R8
(1684957152.036410) can0 04C89349#157344E7BE32DB
(1684957152.036454) can0 252#R8
(1684957152.036497) can0 0C90CD3F#R
(1684957152.036541) can0 04C89349#157344E7BE32DB
(1684957152.036584) can0 252#R8
(1684957152.036627) can0 0C90CD3F#R
(1684957152.049888) can0 0990CD3F#R4
(1684957152.049934) can0 252#R8
(1684957152.050091) can0 0C90CD3F#R
(1684957152.050137) can0 0990CD3F#R4
(1684957152.050233) can0 252#R8
(1684957152.050278) can0 0C90CD3F#R
(1684957152.050322) can0 0990CD3F#R4
(1684957152.050365) can0 252#R8
(1684957152.050409) can0 0C90CD3F#R
(1684957152.050452) can0 0990CD3F#R4
(1684957152.050495) can0 252#R8
(1684957152.055943) can0 0C90CD3F#R
(1684957152.056010) can0 252#R8
(1684957152.056217) can0 0248923F#R
(1684957152.056273) can0 252#R8
(1684957152.056496) can0 122#R8
(1684957152.056762) can0 04C89349#4B7F44E7BED44C
(1684957152.056859) can0 122#R8
(1684957152.056906) can0 04C89349#4B7F44E7BED44C
(1684957152.056951) can0 252#R8
(1684957152.086176) can0 252#R8
(1684957152.086314) can0 322#R
(1684957152.086359) can0 252#R8
(1684957152.086404) can0 04C89349#4B7F44E7BED44C
(1684957152.086437) can0 322#R
(1684957152.086481) can0 252#R8
(1684957152.086534) can0 04C89349#4B7F44E7BED44C
(1684957152.086577) can0 252#R8
(1684957152.086621) can0 322#R
(1684957152.086664) can0 04C89349#4B7F44E7BED44C
(1684957152.086707) can0 252#R8
(1684957152.086750) can0 322#R
(1684957152.099885) can0 0990CD3F#R4
(1684957152.099941) can0 252#R8
(1684957152.100090) can0 322#R
(1684957152.100136) can0 0990CD3F#R4
(1684957152.100180) can0 252#R8
(1684957152.100223) can0 322#R
(1684957152.100266) can0 0990CD3F#R4
(1684957152.100300) can0 252#R8
(1684957152.100343) can0 322#R
(1684957152.100386) can0 0990CD3F#R4
(1684957152.100429) can0 252#R8
(1684957152.100472) can0 322#R
(1684957152.100516) can0 0990CD3F#R4
(1684957152.106251) can0 252#R8
(1684957152.106318) can0 0990CD3F#R4
(1684957152.106525) can0 0248923F#R8
(1684957152.106581) can0 0990CD3F#R4
(1684957152.106803) can0 122#R8
(1684957152.107068) can0 04C89349#157344E7BE32DB
(1684957152.107165) can0 122#R8
(1684957152.107212) can0 04C89349#157344E7BE32DB
(1684957152.107257) can0 0990CD3F#R4
(1684957152.136048) can0 252#R8
(1684957152.136334) can0 0C90CD3F#R
(1684957152.136388) can0 252#R8
(1684957152.136434) can0 04C89349#157344E7BE32DB
(1684957152.136469) can0 0C90CD3F#R
(1684957152.136541) can0 252#R8
(1684957152.136576) can0 04C89349#157344E7BE32DB
(1684957152.136620) can0 0C90CD3F#R
(1684957152.136654) can0 252#R8
(1684957152.136699) can0 04C89349#157344E7BE32DB
(1684957152.136733) can0 0C90CD3F#R
(1684957152.136777) can0 252#R8
(1684957152.149900) can0 0990CD3F#R4
(1684957152.149945) can0 252#R8
(1684957152.150097) can0 0C90CD3F#R
(1684957152.150145) can0 0990CD3F#R4
(1684957152.150242) can0 252#R8
(1684957152.150287) can0 0C90CD3F#R
(1684957152.150331) can0 0990CD3F#R4
(1684957152.150374) can0 252#R8
(1684957152.150418) can0 0C90CD3F#R
(1684957152.156554) can0 0990CD3F#R4
(1684957152.156620) can0 0C90CD3F#R
(1684957152.156828) can0 0248923F#R4
(1684957152.156883) can0 0C90CD3F#R
(1684957152.157105) can0 122#R8
(1684957152.157371) can0 04C89349#157344E7BE32DB
(1684957152.157467) can0 122#R8
(1684957152.157515) can0 04C89349#157344E7BE32DB
(1684957152.157560) can0 0C90CD3F#R
(1684957152.186049) can0 252#R8
(1684957152.186189) can0 0C90CD3F#R
(1684957152.186235) can0 252#R8
(1684957152.186280) can0 04C89349#157344E7BE32DB
(1684957152.186313) can0 0C90CD3F#R
(1684957152.186356) can0 252#R8
(1684957152.186410) can0 04C89349#157344E7BE32DB
(1684957152.186453) can0 252#R8
(1684957152.186496) can0 0C90CD3F#R
(1684957152.186540) can0 04C89349#157344E7BE32DB
(1684957152.186583) can0 252#R8
(1684957152.186627) can0 0C90CD3F#R
(1684957152.199891) can0 0990CD3F#R4
(1684957152.199947) can0 252#R8
(1684957152.200102) can0 0C90CD3F#R
(1684957152.200148) can0 0990CD3F#R4
(1684957152.200246) can0 252#R8
(1684957152.200292) can0 0C90CD3F#R
(1684957152.200336) can0 0990CD3F#R4
(1684957152.200379) can0 252#R8
(1684957152.200423) can0 0C90CD3F#R
(1684957152.200476) can0 0990CD3F#R4
(1684957152.206882) can0 0C90CD3F#R
(1684957152.206948) can0 0990CD3F#R4
(1684957152.207180) can0 0248923F#R
(1684957152.207236) can0 0990CD3F#R4
(1684957152.207457) can0 122#R8
(1684957152.207725) can0 04C89349#4B7F44E7BED44C
(1684957152.207836) can0 122#R8
(1684957152.207882) can0 04C89349#4B7F44E7BED44C
(1684957152.207926) can0 0990CD3F#R4
(1684957152.236197) can0 252#R8
(1684957152.236334) can0 0C90CD3F#R
(1684957152.236381) can0 252#R8
(1684957152.236425) can0 04C89349#4B7F44E7BED44C
(1684957152.236458) can0 0C90CD3F#R
(1684957152.236502) can0 252#R8
(1684957152.236555) can0 04C89349#4B7F44E7BED44C
(1684957152.236753) can0 319#157344E7BED44C84
(1684957152.236799) can0 04C89349#4B7F44E7BED44C
(1684957152.249903) can0 0990CD3F#R4
(1684957152.249948) can0 319#157344E7BED44C84
(1684957152.250104) can0 04C89349#4B7F44E7BED44C
(1684957152.250151) can0 0990CD3F#R4
(1684957152.250252) can0 319#157344E7BED44C84
(1684957152.250299) can0 04C89349#4B7F44E7BED44C
(1684957152.250343) can0 0990CD3F#R4
(1684957152.250386) can0 319#157344E7BED44C84
(1684957152.250430) can0 04C89349#4B7F44E7BED44C
(1684957152.250483) can0 0990CD3F#R4
(1684957152.257130) can0 04C89349#4B7F44E7BED44C
(1684957152.257197) can0 0990CD3F#R4
(1684957152.257399) can0 02489249#4B7F44E7BED44C
(1684957152.257455) can0 0990CD3F#R4
(1684957152.257682) can0 122#R8
(1684957152.257943) can0 04C89349#4B7F44E7BED44C
(1684957152.258039) can0 122#R8
(1684957152.258086) can0 04C89349#4B7F44E7BED44C
(1684957152.258131) can0 0990CD3F#R4
(1684957152.286045) can0 252#R8
(1684957152.286186) can0 0C90CD3F#R
(1684957152.286232) can0 252#R8
(1684957152.286277) can0 04C89349#4B7F44E7BED44C
(1684957152.286310) can0 0C90CD3F#R
(1684957152.286523) can0 224#R8
(1684957152.286570) can0 04C89349#4B7F44E7BED44C
(1684957152.286615) can0 0C90CD3F#R
(1684957152.286648) can0 224#R8
(1684957152.286691) can0 04C89349#4B7F44E7BED44C
(1684957152.299903) can0 0990CD3F#R4
(1684957152.299960) can0 04C89349#4B7F44E7BED44C
(1684957152.300112) can0 224#R8
(1684957152.300159) can0 0990CD3F#R4
(1684957152.300258) can0 04C89349#4B7F44E7BED44C
(1684957152.300304) can0 224#R8
(1684957152.300348) can0 0990CD3F#R4
(1684957152.300392) can0 04C89349#4B7F44E7BED44C
(1684957152.300435) can0 224#R8
(1684957152.300488) can0 0990CD3F#R4
(1684957152.307401) can0 224#R8
(1684957152.307467) can0 0990CD3F#R4
(1684957152.307675) can0 0248923F#R8
(1684957152.307729) can0 0990CD3F#R4
(1684957152.307951) can0 122#R8
(1684957152.308218) can0 04C89349#157344E7BED44C
(1684957152.308315) can0 122#R8
(1684957152.308361) can0 04C89349#157344E7BED44C
(1684957152.308407) can0 0990CD3F#R4
(1684957152.336044) can0 252#R8
(1684957152.336184) can0 0C90CD3F#R
(1684957152.336230) can0 252#R8
(1684957152.336275) can0 04C89349#157344E7BED44C
(1684957152.336308) can0 0C90CD3F#R
(1684957152.336352) can0 252#R8
(1684957152.336405) can0 04C89349#157344E7BED44C
(1684957152.336599) can0 319#4B7F44E7BED44C84
(1684957152.336646) can0 04C89349#157344E7BED44C
(1684957152.349912) can0 0990CD3F#R4
(1684957152.349957) can0 319#4B7F44E7BED44C84
(1684957152.350119) can0 04C89349#157344E7BED44C
(1684957152.350165) can0 0990CD3F#R4
(1684957152.350258) can0 319#4B7F44E7BED44C84
(1684957152.350304) can0 04C89349#157344E7BED44C
(1684957152.350347) can0 0990CD3F#R4
(1684957152.350391) can0 319#4B7F44E7BED44C84
(1684957152.350435) can0 04C89349#157344E7BED44C
(1684957152.350478) can0 0990CD3F#R4
(1684957152.350522) can0 319#4B7F44E7BED44C84
(1684957152.357671) can0 04C89349#157344E7BED44C
(1684957152.357738) can0 319#4B7F44E7BED44C84
(1684957152.357944) can0 02489249#157344E7BED44C
(1684957152.357999) can0 319#4B7F44E7BED44C84
(1684957152.358223) can0 122#R8
(1684957152.358488) can0 04C89349#157344E7BED44C
(1684957152.358585) can0 122#R8
(1684957152.358633) can0 04C89349#157344E7BED44C
(1684957152.358678) can0 319#4B7F44E7BED44C84
(1684957152.386154) can0 252#R8
(1684957152.386292) can0 321#
(1684957152.386339) can0 252#R8
(1684957152.386383) can0 04C89349#157344E7BED44C
(1684957152.386417) can0 321#
(1684957152.386460) can0 252#R8
(1684957152.386513) can0 04C89349#157344E7BED44C
(1684957152.386705) can0 319#157344E7BE32DB7E
(1684957152.386753) can0 04C89349#157344E7BED44C
(1684957152.399904) can0 0990CD3F#R4
(1684957152.399961) can0 319#157344E7BE32DB7E
(1684957152.400119) can0 04C89349#157344E7BED44C
(1684957152.400166) can0 0990CD3F#R4
(1684957152.400263) can0 319#157344E7BE32DB7E
(1684957152.400309) can0 04C89349#157344E7BED44C
(1684957152.400353) can0 0990CD3F#R4
(1684957152.400397) can0 319#157344E7BE32DB7E
(1684957152.400440) can0 04C89349#157344E7BED44C
(1684957152.400483) can0 0990CD3F#R4
(1684957152.400527) can0 319#157344E7BE32DB7E
(1684957152.407982) can0 04C89349#157344E7BED44C
(1684957152.408049) can0 319#157344E7BE32DB7E
(1684957152.408281) can0 02489249#157344E7BED44C
(1684957152.408336) can0 319#157344E7BE32DB7E
(1684957152.408566) can0 122#R8
(1684957152.408821) can0 04C89349#157344E7BED44C
(1684957152.408932) can0 122#R8
(1684957152.408979) can0 04C89349#157344E7BED44C
(1684957152.409023) can0 319#157344E7BE32DB7E
(1684957152.436043) can0 252#R8
(1684957152.436181) can0 321#
(1684957152.436227) can0 252#R8
(1684957152.436272) can0 04C89349#157344E7BED44C
(1684957152.436305) can0 321#
(1684957152.436348) can0 252#R8
(1684957152.436402) can0 04C89349#157344E7BED44C
(1684957152.436591) can0 319#4B7F44E7BED44C84
(1684957152.436638) can0 04C89349#157344E7BED44C
(1684957152.449918) can0 0990CD3F#R4
(1684957152.449964) can0 319#4B7F44E7BED44C84
(1684957152.450126) can0 04C89349#157344E7BED44C
(1684957152.450173) can0 0990CD3F#R4
(1684957152.450265) can0 319#4B7F44E7BED44C84
(1684957152.450311) can0 04C89349#157344E7BED44C
(1684957152.450355) can0 0990CD3F#R4
(1684957152.450399) can0 319#4B7F44E7BED44C84
(1684957152.450442) can0 04C89349#157344E7BED44C
(1684957152.450485) can0 0990CD3F#R4
(1684957152.458224) can0 319#4B7F44E7BED44C84
(1684957152.458290) can0 04C89349#157344E7BED44C
(1684957152.458522) can0 0248923F#4B7F44E7BED44C84
(1684957152.458576) can0 04C89349#157344E7BED44C
(1684957152.458799) can0 122#R8
(1684957152.459065) can0 04C89349#4B7F44E7BED44C
(1684957152.459179) can0 122#R8
(1684957152.459225) can0 04C89349#4B7F44E7BED44C
(1684957152.459269) can0 04C89349#157344E7BED44C
(1684957152.486044) can0 252#R8
(1684957152.486183) can0 0C889349#R
(1684957152.486229) can0 252#R8
(1684957152.486273) can0 04C89349#4B7F44E7BED44C
(1684957152.486307) can0 0C889349#R
(1684957152.486350) can0 252#R8
(1684957152.486404) can0 04C89349#4B7F44E7BED44C
(1684957152.486447) can0 252#R8
(1684957152.486490) can0 0C889349#R
(1684957152.486534) can0 04C89349#4B7F44E7BED44C
(1684957152.486577) can0 252#R8
(1684957152.486620) can0 0C889349#R
(1684957152.499914) can0 0990CD3F#R4
(1684957152.499970) can0 252#R8
(1684957152.500122) can0 0C889349#R
(1684957152.500169) can0 0990CD3F#R4
(1684957152.500268) can0 252#R8
(1684957152.500314) can0 0C889349#R
(1684957152.500358) can0 0990CD3F#R4
(1684957152.500401) can0 252#R8
(1684957152.500445) can0 0C889349#R
(1684957152.500488) can0 0990CD3F#R4
(1684957152.500531) can0 252#R8
(1684957152.508433) can0 0C889349#R
(1684957152.508499) can0 252#R8
(1684957152.508704) can0 02489249#R
(1684957152.508759) can0 252#R8
(1684957152.508982) can0 122#R8
(1684957152.509248) can0 04C89349#157344E7BED44C
(1684957152.509344) can0 122#R8
(1684957152.509392) can0 04C89349#157344E7BED44C
(1684957152.509437) can0 252#R8
(1684957152.536042) can0 252#R8
(1684957152.536183) can0 322#R
(1684957152.536229) can0 252#R8
(1684957152.536274) can0 04C89349#157344E7BED44C
(1684957152.536307) can0 322#R
(1684957152.536351) can0 252#R8
(1684957152.536404) can0 04C89349#157344E7BED44C
(1684957152.536447) can0 252#R8
(1684957152.536491) can0 322#R
(1684957152.536534) can0 04C89349#157344E7BED44C
(1684957152.536578) can0 252#R8
(1684957152.536621) can0 322#R
(1684957152.549927) can0 0990CD3F#R4
(1684957152.549973) can0 252#R8
(1684957152.550128) can0 322#R
(1684957152.550176) can0 0990CD3F#R4
(1684957152.550271) can0 252#R8
(1684957152.550317) can0 322#R
(1684957152.550361) can0 0990CD3F#R4
(1684957152.550404) can0 252#R8
(1684957152.550447) can0 322#R
(1684957152.550491) can0 0990CD3F#R4
(1684957152.550534) can0 252#R8
(1684957152.558685) can0 322#R
(1684957152.558751) can0 252#R8
(1684957152.558958) can0 0248923F#R
(1684957152.559012) can0 252#R8
(1684957152.559234) can0 122#R8
(1684957152.559502) can0 04C89349#157344E7BE32DB
(1684957152.559600) can0 122#R8
(1684957152.559654) can0 04C89349#157344E7BE32DB
(1684957152.559701) can0 252#R8
(1684957152.586194) can0 252#R8
(1684957152.586332) can0 322#R
(1684957152.586378) can0 252#R8
(1684957152.586423) can0 04C89349#157344E7BE32DB
(1684957152.586456) can0 322#R
(1684957152.586500) can0 252#R8
(1684957152.586554) can0 04C89349#157344E7BE32DB
(1684957152.586597) can0 252#R8
(1684957152.586640) can0 322#R
(1684957152.586684) can0 04C89349#157344E7BE32DB
(1684957152.586727) can0 252#R8
(1684957152.586770) can0 322#R
(1684957152.599921) can0 0990CD3F#R4
(1684957152.599977) can0 252#R8
(1684957152.600131) can0 322#R
(1684957152.600177) can0 0990CD3F#R4
(1684957152.600276) can0 252#R8
(1684957152.600322) can0 322#R
(1684957152.600365) can0 0990CD3F#R4
(1684957152.600409) can0 252#R8
(1684957152.600452) can0 322#R
(1684957152.600495) can0 0990CD3F#R4
(1684957152.600538) can0 252#R8
(1684957152.608989) can0 322#R
(1684957152.609054) can0 252#R8
(1684957152.609288) can0 0248923F#R
(1684957152.609343) can0 252#R8
(1684957152.609566) can0 122#R8
(1684957152.609833) can0 04C89349#4B7F44E7BED44C
(1684957152.609946) can0 122#R8
(1684957152.609992) can0 04C89349#4B7F44E7BED44C
(1684957152.610036) can0 252#R8
(1684957152.636040) can0 252#R8
(1684957152.636332) can0 322#R
(1684957152.636387) can0 252#R8
(1684957152.636433) can0 04C89349#4B7F44E7BED44C
(1684957152.636468) can0 322#R
(1684957152.636540) can0 252#R8
(1684957152.636575) can0 04C89349#4B7F44E7BED44C
(1684957152.636619) can0 322#R
(1684957152.636654) can0 252#R8
(1684957152.636698) can0 04C89349#4B7F44E7BED44C
(1684957152.636732) can0 322#R
(1684957152.636777) can0 252#R8
(1684957152.649936) can0 0990CD3F#R4
(1684957152.649981) can0 252#R8
(1684957152.650143) can0 322#R
(1684957152.650190) can0 0990CD3F#R4
(1684957152.650282) can0 252#R8
(1684957152.650328) can0 322#R
(1684957152.650372) can0 0990CD3F#R4
(1684957152.650415) can0 252#R8
(1684957152.650458) can0 322#R
(1684957152.650501) can0 0990CD3F#R4
(1684957152.650545) can0 252#R8
(1684957152.659195) can0 322#R
(1684957152.659261) can0 252#R8
(1684957152.659463) can0 0248923F#R
(1684957152.659517) can0 252#R8
(1684957152.659740) can0 122#R8
(1684957152.660007) can0 04C89349#157344E7BED44C
(1684957152.660106) can0 122#R8
(1684957152.660153) can0 04C89349#157344E7BED44C
(1684957152.660199) can0 252#R8
(1684957152.686038) can0 252#R8
(1684957152.686177) can0 322#R
(1684957152.686223) can0 252#R8
(1684957152.686267) can0 04C89349#157344E7BED44C
(1684957152.686300) can0 322#R
(1684957152.686344) can0 252#R8
(1684957152.686397) can0 04C89349#157344E7BED44C
(1684957152.686441) can0 252#R8
(1684957152.686484) can0 322#R
(1684957152.686527) can0 04C89349#157344E7BED44C
(1684957152.686570) can0 252#R8
(1684957152.686614) can0 322#R
(1684957152.699928) can0 0990CD3F#R4
(1684957152.699985) can0 252#R8
(1684957152.700137) can0 322#R
(1684957152.700184) can0 0990CD3F#R4
(1684957152.700283) can0 252#R8
(1684957152.700329) can0 322#R
(1684957152.700373) can0 0990CD3F#R4
(1684957152.700416) can0 252#R8
(1684957152.700459) can0 322#R
(1684957152.700503) can0 0990CD3F#R4
(1684957152.709439) can0 252#R8
(1684957152.709505) can0 322#R
(1684957152.709704) can0 0248923F#R8
(1684957152.709752) can0 322#R
(1684957152.709985) can0 122#R8
(1684957152.710252) can0 04C89349#4B7F44E7BED44C
(1684957152.710349) can0 122#R8
(1684957152.710395) can0 04C89349#4B7F44E7BED44C
(1684957152.710441) can0 322#R
(1684957152.736154) can0 252#R8
(1684957152.736292) can0 322#R
(1684957152.736338) can0 252#R8
(1684957152.736382) can0 04C89349#4B7F44E7BED44C
(1684957152.736416) can0 322#R
(1684957152.736459) can0 252#R8
(1684957152.736513) can0 04C89349#4B7F44E7BED44C
(1684957152.736708) can0 319#157344E7BED44C84
(1684957152.736754) can0 04C89349#4B7F44E7BED44C
(1684957152.749941) can0 0990CD3F#R4
(1684957152.749986) can0 319#157344E7BED44C84
(1684957152.750148) can0 04C89349#4B7F44E7BED44C
(1684957152.750194) can0 0990CD3F#R4
(1684957152.750286) can0 319#157344E7BED44C84
(1684957152.750332) can0 04C89349#4B7F44E7BED44C
(1684957152.750376) can0 0990CD3F#R4
(1684957152.750420) can0 319#157344E7BED44C84
(1684957152.750463) can0 04C89349#4B7F44E7BED44C
(1684957152.759726) can0 0990CD3F#R4
(1684957152.759793) can0 04C89349#4B7F44E7BED44C
(1684957152.759990) can0 0248923F#R4
(1684957152.760044) can0 04C89349#4B7F44E7BED44C
(1684957152.760272) can0 122#R8
(1684957152.760538) can0 04C89349#157344E7BE32DB
(1684957152.760635) can0 122#R8
(1684957152.760682) can0 04C89349#157344E7BE32DB
(1684957152.760727) can0 04C89349#4B7F44E7BED44C
(1684957152.786036) can0 252#R8
(1684957152.786329) can0 0C889349#R
(1684957152.786383) can0 252#R8
(1684957152.786429) can0 04C89349#157344E7BE32DB
(1684957152.786464) can0 0C889349#R
(1684957152.786536) can0 252#R8
(1684957152.786581) can0 04C89349#157344E7BE32DB
(1684957152.786739) can0 319#4B7F44E7BED44C84
(1684957152.786786) can0 252#R8
(1684957152.799934) can0 0990CD3F#R4
(1684957152.799991) can0 319#4B7F44E7BED44C84
(1684957152.800145) can0 252#R8
(1684957152.800192) can0 0990CD3F#R4
(1684957152.800290) can0 319#4B7F44E7BED44C84
(1684957152.800336) can0 252#R8
(1684957152.800380) can0 0990CD3F#R4
(1684957152.800423) can0 319#4B7F44E7BED44C84
(1684957152.800467) can0 252#R8
(1684957152.800520) can0 0990CD3F#R4
(1684957152.810010) can0 252#R8
(1684957152.810075) can0 0990CD3F#R4
(1684957152.810287) can0 0248923F#R8
(1684957152.810342) can0 0990CD3F#R4
(1684957152.810559) can0 122#R8
(1684957152.810826) can0 04C89349#157344E7BED44C
(1684957152.810923) can0 122#R8
(1684957152.810970) can0 04C89349#157344E7BED44C
(1684957152.811015) can0 0990CD3F#R4
(1684957152.836037) can0 252#R8
(1684957152.836174) can0 0C90CD3F#R
(1684957152.836221) can0 252#R8
(1684957152.836265) can0 04C89349#157344E7BED44C
(1684957152.836298) can0 0C90CD3F#R
(1684957152.836342) can0 252#R8
(1684957152.836395) can0 04C89349#157344E7BED44C
(1684957152.836587) can0 319#4B7F44E7BED44C84
(1684957152.836635) can0 04C89349#157344E7BED44C
(1684957152.849949) can0 0990CD3F#R4
(1684957152.849994) can0 319#4B7F44E7BED44C84
(1684957152.850150) can0 04C89349#157344E7BED44C
(1684957152.850197) can0 0990CD3F#R4
(1684957152.850294) can0 319#4B7F44E7BED44C84
(1684957152.850340) can0 04C89349#157344E7BED44C
(1684957152.850383) can0 0990CD3F#R4
(1684957152.850427) can0 319#4B7F44E7BED44C84
(1684957152.850470) can0 04C89349#157344E7BED44C
(1684957152.850514) can0 0990CD3F#R4
(1684957152.850557) can0 319#4B7F44E7BED44C84
(1684957152.860285) can0 04C89349#157344E7BED44C
(1684957152.860351) can0 319#4B7F44E7BED44C84
(1684957152.860551) can0 02489249#157344E7BED44C
(1684957152.860606) can0 319#4B7F44E7BED44C84
(1684957152.860831) can0 122#R8
(1684957152.861099) can0 04C89349#157344E7BED44C
(1684957152.861195) can0 122#R8
(1684957152.861242) can0 04C89349#157344E7BED44C
(1684957152.861287) can0 319#4B7F44E7BED44C84
(1684957152.886110) can0 252#R8
(1684957152.886248) can0 321#
(1684957152.886295) can0 252#R8
(1684957152.886339) can0 04C89349#157344E7BED44C
(1684957152.886373) can0 321#
(1684957152.886417) can0 252#R8
(1684957152.886470) can0 04C89349#157344E7BED44C
(1684957152.886660) can0 319#157344E7BE32DB7E
(1684957152.886706) can0 04C89349#157344E7BED44C
(1684957152.899943) can0 0990CD3F#R4
(1684957152.899999) can0 319#157344E7BE32DB7E
(1684957152.900152) can0 04C89349#157344E7BED44C
(1684957152.900199) can0 0990CD3F#R4
(1684957152.900297) can0 319#157344E7BE32DB7E
(1684957152.900343) can0 04C89349#157344E7BED44C
(1684957152.900387) can0 0990CD3F#R4
(1684957152.900430) can0 319#157344E7BE32DB7E
(1684957152.900474) can0 04C89349#157344E7BED44C
(1684957152.900518) can0 0990CD3F#R4
(1684957152.910545) can0 319#157344E7BE32DB7E
(1684957152.910612) can0 04C89349#157344E7BED44C
(1684957152.910839) can0 0248923F#157344E7BE32DB7E
(1684957152.910894) can0 04C89349#157344E7BED44C
(1684957152.911117) can0 122#R8
(1684957152.911383) can0 04C89349#157344E7BE32DB
(1684957152.911493) can0 122#R8
(1684957152.911539) can0 04C89349#157344E7BE32DB
(1684957152.911583) can0 04C89349#157344E7BED44C
(1684957152.936035) can0 252#R8
(1684957152.936172) can0 0C889349#R
(1684957152.936218) can0 252#R8
(1684957152.936263) can0 04C89349#157344E7BE32DB
(1684957152.936296) can0 0C889349#R
(1684957152.936339) can0 252#R8
(1684957152.936393) can0 04C89349#157344E7BE32DB
(1684957152.936583) can0 319#4B7F44E7BED44C84
(1684957152.936629) can0 04C89349#157344E7BE32DB
(1684957152.949957) can0 0990CD3F#R4
(1684957152.950002) can0 319#4B7F44E7BED44C84
(1684957152.950157) can0 04C89349#157344E7BE32DB
(1684957152.950205) can0 0990CD3F#R4
(1684957152.950300) can0 319#4B7F44E7BED44C84
(1684957152.950346) can0 04C89349#157344E7BE32DB
(1684957152.950390) can0 0990CD3F#R4
(1684957152.950434) can0 319#4B7F44E7BED44C84
(1684957152.950477) can0 04C89349#157344E7BE32DB
(1684957152.950521) can0 0990CD3F#R4
(1684957152.950564) can0 319#4B7F44E7BED44C84
(1684957152.960806) can0 04C89349#157344E7BE32DB
(1684957152.960873) can0 319#4B7F44E7BED44C84
(1684957152.961102) can0 02489249#157344E7BE32DB
(1684957152.961158) can0 319#4B7F44E7BED44C84
(1684957152.961377) can0 122#R8
(1684957152.961645) can0 04C89349#157344E7BE32DB
(1684957152.961755) can0 122#R8
(1684957152.961801) can0 04C89349#157344E7BE32DB
(1684957152.961846) can0 319#4B7F44E7BED44C84
(1684957152.986032) can0 252#R8
(1684957152.986170) can0 321#
(1684957152.986217) can0 252#R8
(1684957152.986262) can0 04C89349#157344E7BE32DB
(1684957152.986295) can0 321#
(1684957152.986504) can0 224#R8
(1684957152.986551) can0 04C89349#157344E7BE32DB
(1684957152.986595) can0 321#
(1684957152.986629) can0 224#R8
(1684957152.986700) can0 04C89349#157344E7BE32DB
(1684957152.999953) can0 0990CD3F#R4
(1684957153.000010) can0 04C89349#157344E7BE32DB
(1684957153.000164) can0 224#R8
(1684957153.000210) can0 0990CD3F#R4
(1684957153.000311) can0 04C89349#157344E7BE32DB
(1684957153.000356) can0 224#R8
(1684957153.000400) can0 0990CD3F#R4
(1684957153.000444) can0 04C89349#157344E7BE32DB
(1684957153.000487) can0 224#R8
(1684957153.000530) can0 0990CD3F#R4
(1684957153.000574) can0 04C89349#157344E7BE32DB
(1684957153.011026) can0 224#R8
(1684957153.011093) can0 04C89349#157344E7BE32DB
(1684957153.011292) can0 0248923F#R8
(1684957153.011348) can0 04C89349#157344E7BE32DB
(1684957153.011575) can0 122#R8
(1684957153.011841) can0 04C89349#157344E7BED44C
(1684957153.011937) can0 122#R8
(1684957153.011984) can0 04C89349#157344E7BED44C
(1684957153.012030) can0 04C89349#157344E7BE32DB
(1684957153.036032) can0 252#R8
(1684957153.036172) can0 0C889349#R
(1684957153.036218) can0 252#R8
(1684957153.036263) can0 04C89349#157344E7BED44C
(1684957153.036296) can0 0C889349#R
(1684957153.036340) can0 252#R8
(1684957153.036394) can0 04C89349#157344E7BED44C
(1684957153.036532) can0 252#R8
(1684957153.036579) can0 04C89349#157344E7BED44C
(1684957153.036623) can0 0C889349#R
(1684957153.049963) can0 0990CD3F#R4
(1684957153.050008) can0 0C889349#R
(1684957153.050170) can0 04C89349#157344E7BED44C
(1684957153.050217) can0 0990CD3F#R4
(1684957153.050307) can0 0C889349#R
(1684957153.050352) can0 04C89349#157344E7BED44C
(1684957153.050397) can0 0990CD3F#R4
(1684957153.050440) can0 0C889349#R
(1684957153.050483) can0 04C89349#157344E7BED44C
(1684957153.050537) can0 0990CD3F#R4
(1684957153.061300) can0 04C89349#157344E7BED44C
(1684957153.061366) can0 0990CD3F#R4
(1684957153.061565) can0 02489249#157344E7BED44C
(1684957153.061619) can0 0990CD3F#R4
(1684957153.061841) can0 122#R8
(1684957153.062109) can0 04C89349#157344E7BED44C
(1684957153.062205) can0 122#R8
(1684957153.062252) can0 04C89349#157344E7BED44C
(1684957153.062298) can0 0990CD3F#R4
(1684957153.086135) can0 252#R8
(1684957153.086273) can0 0C90CD3F#R
(1684957153.086319) can0 252#R8
(1684957153.086364) can0 04C89349#157344E7BED44C
(1684957153.086397) can0 0C90CD3F#R
(1684957153.086441) can0 252#R8
(1684957153.086494) can0 04C89349#157344E7BED44C
(1684957153.086638) can0 252#R8
(1684957153.086685) can0 04C89349#157344E7BED44C
(1684957153.086729) can0 0C90CD3F#R
(1684957153.099959) can0 0990CD3F#R4
(1684957153.100016) can0 0C90CD3F#R
(1684957153.100168) can0 04C89349#157344E7BED44C
(1684957153.100215) can0 0990CD3F#R4
(1684957153.100314) can0 0C90CD3F#R
(1684957153.100361) can0 04C89349#157344E7BED44C
(1684957153.100405) can0 0990CD3F#R4
(1684957153.100448) can0 0C90CD3F#R
(1684957153.100492) can0 04C89349#157344E7BED44C
(1684957153.100535) can0 0990CD3F#R4
(1684957153.111601) can0 0C90CD3F#R
(1684957153.111667) can0 04C89349#157344E7BED44C
(1684957153.111895) can0 0248923F#R
(1684957153.111950) can0 04C89349#157344E7BED44C
(1684957153.112173) can0 122#R8
(1684957153.112441) can0 04C89349#4B7F44E7BED44C
(1684957153.112551) can0 122#R8
(1684957153.112597) can0 04C89349#4B7F44E7BED44C
(1684957153.112641) can0 04C89349#157344E7BED44C
(1684957153.136031) can0 252#R8
(1684957153.136309) can0 0C889349#R
(1684957153.136363) can0 252#R8
(1684957153.136409) can0 04C89349#4B7F44E7BED44C
(1684957153.136444) can0 0C889349#R
(1684957153.136516) can0 252#R8
(1684957153.136551) can0 04C89349#4B7F44E7BED44C
(1684957153.136668) can0 0C889349#R
(1684957153.136715) can0 252#R8
(1684957153.136759) can0 04C89349#4B7F44E7BED44C
(1684957153.149971) can0 0990CD3F#R4
(1684957153.150017) can0 04C89349#4B7F44E7BED44C
(1684957153.150173) can0 252#R8
(1684957153.150219) can0 0990CD3F#R4
(1684957153.150316) can0 04C89349#4B7F44E7BED44C
(1684957153.150362) can0 252#R8
(1684957153.150406) can0 0990CD3F#R4
(1684957153.150450) can0 04C89349#4B7F44E7BED44C
(1684957153.150493) can0 252#R8
(1684957153.150579) can0 0990CD3F#R4
(1684957153.161908) can0 252#R8
(1684957153.161975) can0 0990CD3F#R4
(1684957153.162207) can0 0248923F#R8
(1684957153.162262) can0 0990CD3F#R4
(1684957153.162485) can0 122#R8
(1684957153.162751) can0 04C89349#157344E7BE32DB
(1684957153.162863) can0 122#R8
(1684957153.162909) can0 04C89349#157344E7BE32DB
(1684957153.162953) can0 0990CD3F#R4
(1684957153.186029) can0 252#R8
(1684957153.186166) can0 0C90CD3F#R
(1684957153.186213) can0 252#R8
(1684957153.186257) can0 04C89349#157344E7BE32DB
(1684957153.186291) can0 0C90CD3F#R
(1684957153.186503) can0 224#R8
(1684957153.186550) can0 04C89349#157344E7BE32DB
(1684957153.186594) can0 0C90CD3F#R
(1684957153.186627) can0 224#R8
(1684957153.186671) can0 04C89349#157344E7BE32DB
(1684957153.199966) can0 0990CD3F#R4
(1684957153.200023) can0 04C89349#157344E7BE32DB
(1684957153.200176) can0 224#R8
(1684957153.200222) can0 0990CD3F#R4
(1684957153.200318) can0 04C89349#157344E7BE32DB
(1684957153.200364) can0 224#R8
(1684957153.200408) can0 0990CD3F#R4
(1684957153.200452) can0 04C89349#157344E7BE32DB
(1684957153.200496) can0 224#R8
(1684957153.200539) can0 0990CD3F#R4
(1684957153.200583) can0 04C89349#157344E7BE32DB
(1684957153.212169) can0 224#R8
(1684957153.212235) can0 04C89349#157344E7BE32DB
(1684957153.212447) can0 02489249#R8
(1684957153.212501) can0 04C89349#157344E7BE32DB
(1684957153.212717) can0 122#R8
(1684957153.212985) can0 04C89349#4B7F44E7BED44C
(1684957153.213082) can0 122#R8
(1684957153.213129) can0 04C89349#4B7F44E7BED44C
(1684957153.213174) can0 04C89349#157344E7BE32DB
(1684957153.236209) can0 252#R8
(1684957153.236348) can0 0C889349#R
(1684957153.236394) can0 252#R8
(1684957153.236439) can0 04C89349#4B7F44E7BED44C
(1684957153.236472) can0 0C889349#R
(1684957153.236516) can0 252#R8
(1684957153.236569) can0 04C89349#4B7F44E7BED44C
(1684957153.236612) can0 252#R8
(1684957153.236656) can0 0C889349#R
(1684957153.236699) can0 04C89349#4B7F44E7BED44C
(1684957153.236743) can0 252#R8
(1684957153.236786) can0 0C889349#R
(1684957153.249977) can0 0990CD3F#R4
(1684957153.250022) can0 252#R8
(1684957153.250178) can0 0C889349#R
(1684957153.250224) can0 0990CD3F#R4
(1684957153.250323) can0 252#R8
(1684957153.250369) can0 0C889349#R
(1684957153.250413) can0 0990CD3F#R4
(1684957153.250456) can0 252#R8
(1684957153.250499) can0 0C889349#R
(1684957153.250552) can0 0990CD3F#R4
(1684957153.262481) can0 0C889349#R
(1684957153.262547) can0 0990CD3F#R4
(1684957153.262741) can0 02489249#R
(1684957153.262796) can0 0990CD3F#R4
(1684957153.263023) can0 122#R8
(1684957153.263291) can0 04C89349#157344E7BE32DB
(1684957153.263388) can0 122#R8
(1684957153.263435) can0 04C89349#157344E7BE32DB
(1684957153.263480) can0 0990CD3F#R4
(1684957153.286025) can0 252#R8
(1684957153.286164) can0 0C90CD3F#R
(1684957153.286210) can0 252#R8
(1684957153.286254) can0 04C89349#157344E7BE32DB
(1684957153.286288) can0 0C90CD3F#R
(1684957153.286500) can0 224#R8
(1684957153.286547) can0 04C89349#157344E7BE32DB
(1684957153.286592) can0 0C90CD3F#R
(1684957153.286635) can0 224#R8
(1684957153.286678) can0 04C89349#157344E7BE32DB
(1684957153.299972) can0 0990CD3F#R4
(1684957153.300029) can0 04C89349#157344E7BE32DB
(1684957153.300182) can0 224#R8
(1684957153.300228) can0 0990CD3F#R4
(1684957153.300328) can0 04C89349#157344E7BE32DB
(1684957153.300374) can0 224#R8
(1684957153.300418) can0 0990CD3F#R4
(1684957153.300461) can0 04C89349#157344E7BE32DB
(1684957153.300504) can0 224#R8
(1684957153.300548) can0 0990CD3F#R4
(1684957153.312783) can0 04C89349#157344E7BE32DB
(1684957153.312849) can0 224#R8
(1684957153.313079) can0 02489249#157344E7BE32DB
(1684957153.313133) can0 224#R8
(1684957153.313355) can0 122#R8
(1684957153.313622) can0 04C89349#157344E7BE32DB
(1684957153.313732) can0 122#R8
(1684957153.313778) can0 04C89349#157344E7BE32DB
(1684957153.313822) can0 224#R8
(1684957153.336026) can0 252#R8
(1684957153.336163) can0 324#R
(1684957153.336209) can0 252#R8
(1684957153.336254) can0 04C89349#157344E7BE32DB
(1684957153.336288) can0 324#R
(1684957153.336331) can0 252#R8
(1684957153.336385) can0 04C89349#157344E7BE32DB
(1684957153.336428) can0 252#R8
(1684957153.336472) can0 324#R
(1684957153.336515) can0 04C89349#157344E7BE32DB
(1684957153.336559) can0 252#R8
(1684957153.336602) can0 324#R
(1684957153.349984) can0 0990CD3F#R4
(1684957153.350030) can0 252#R8
(1684957153.350193) can0 324#R
(1684957153.350240) can0 0990CD3F#R4
(1684957153.350331) can0 252#R8
(1684957153.350377) can0 324#R
(1684957153.350421) can0 0990CD3F#R4
(1684957153.350464) can0 252#R8
(1684957153.350507) can0 324#R
(1684957153.350561) can0 0990CD3F#R4
(1684957153.363098) can0 324#R
(1684957153.363164) can0 0990CD3F#R4
(1684957153.363397) can0 0248923F#R
(1684957153.363451) can0 0990CD3F#R4
(1684957153.363673) can0 122#R8
(1684957153.363940) can0 04C89349#157344E7BED44C
(1684957153.364053) can0 122#R8
(1684957153.364099) can0 04C89349#157344E7BED44C
(1684957153.364143) can0 0990CD3F#R4
(1684957153.386269) can0 252#R8
(1684957153.386406) can0 0C90CD3F#R
(1684957153.386452) can0 252#R8
(1684957153.386496) can0 04C89349#157344E7BED44C
(1684957153.386529) can0 0C90CD3F#R
(1684957153.386573) can0 252#R8
(1684957153.386626) can0 04C89349#157344E7BED44C
(1684957153.386669) can0 252#R8
(1684957153.386713) can0 0C90CD3F#R
(1684957153.386756) can0 04C89349#157344E7BED44C
(1684957153.386799) can0 252#R8
(1684957153.386842) can0 0C90CD3F#R
(1684957153.399979) can0 0990CD3F#R4
(1684957153.400036) can0 252#R8
(1684957153.400190) can0 0C90CD3F#R
(1684957153.400236) can0 0990CD3F#R4
(1684957153.400335) can0 252#R8
(1684957153.400381) can0 0C90CD3F#R
(1684957153.400425) can0 0990CD3F#R4
(1684957153.400468) can0 252#R8
(1684957153.400512) can0 0C90CD3F#R
(1684957153.400555) can0 0990CD3F#R4
(1684957153.413318) can0 252#R8
(1684957153.413384) can0 0C90CD3F#R
(1684957153.413596) can0 0248923F#R8
(1684957153.413650) can0 0C90CD3F#R
(1684957153.413866) can0 122#R8
(1684957153.414135) can0 04C89349#4B7F44E7BED44C
(1684957153.414233) can0 122#R8
(1684957153.414280) can0 04C89349#4B7F44E7BED44C
(1684957153.414325) can0 0C90CD3F#R
(1684957153.436262) can0 252#R8
(1684957153.436399) can0 0C90CD3F#R
(1684957153.436446) can0 252#R8
(1684957153.436490) can0 04C89349#4B7F44E7BED44C
(1684957153.436523) can0 0C90CD3F#R
(1684957153.436567) can0 252#R8
(1684957153.436620) can0 04C89349#4B7F44E7BED44C
(1684957153.436664) can0 252#R8
(1684957153.436707) can0 0C90CD3F#R
(1684957153.436750) can0 04C89349#4B7F44E7BED44C
(1684957153.436794) can0 252#R8
(1684957153.436837) can0 0C90CD3F#R
(1684957153.449992) can0 0990CD3F#R4
(1684957153.450038) can0 252#R8
(1684957153.450199) can0 0C90CD3F#R
(1684957153.450246) can0 0990CD3F#R4
(1684957153.450337) can0 252#R8
(1684957153.450383) can0 0C90CD3F#R
(1684957153.450427) can0 0990CD3F#R4
(1684957153.450471) can0 252#R8
(1684957153.450514) can0 0C90CD3F#R
(1684957153.450567) can0 0990CD3F#R4
(1684957153.463583) can0 0C90CD3F#R
(1684957153.463649) can0 0990CD3F#R4
(1684957153.463860) can0 0248923F#R
(1684957153.463914) can0 0990CD3F#R4
(1684957153.464133) can0 122#R8
(1684957153.464399) can0 04C89349#157344E7BE32DB
(1684957153.464497) can0 122#R8
(1684957153.464544) can0 04C89349#157344E7BE32DB
(1684957153.464590) can0 0990CD3F#R4
(1684957153.486024) can0 252#R8
(1684957153.486162) can0 0C90CD3F#R
(1684957153.486208) can0 252#R8
(1684957153.486253) can0 04C89349#157344E7BE32DB
(1684957153.486286) can0 0C90CD3F#R
(1684957153.486329) can0 252#R8
(1684957153.486383) can0 04C89349#157344E7BE32DB
(1684957153.486426) can0 252#R8
(1684957153.486518) can0 0C90CD3F#R
(1684957153.486564) can0 04C89349#157344E7BE32DB
(1684957153.486608) can0 252#R8
(1684957153.499990) can0 0990CD3F#R4
(1684957153.500047) can0 252#R8
(1684957153.500199) can0 04C89349#157344E7BE32DB
(1684957153.500245) can0 0990CD3F#R4
(1684957153.500344) can0 252#R8
(1684957153.500390) can0 04C89349#157344E7BE32DB
(1684957153.500435) can0 0990CD3F#R4
(1684957153.500478) can0 252#R8
(1684957153.500522) can0 04C89349#157344E7BE32DB
(1684957153.500565) can0 0990CD3F#R4
(1684957153.500608) can0 252#R8
(1684957153.513843) can0 04C89349#157344E7BE32DB
(1684957153.513910) can0 252#R8
(1684957153.514108) can0 02489249#157344E7BE32DB
(1684957153.514162) can0 252#R8
(1684957153.514391) can0 122#R8
(1684957153.514657) can0 04C89349#157344E7BE32DB
(1684957153.514756) can0 122#R8
(1684957153.514803) can0 04C89349#157344E7BE32DB
(1684957153.514848) can0 252#R8
(1684957153.536023) can0 252#R8
(1684957153.536160) can0 322#R
(1684957153.536207) can0 252#R8
(1684957153.536251) can0 04C89349#157344E7BE32DB
(1684957153.536285) can0 322#R
(1684957153.536329) can0 252#R8
(1684957153.536382) can0 04C89349#157344E7BE32DB
(1684957153.536425) can0 252#R8
(1684957153.536469) can0 322#R
(1684957153.536512) can0 04C89349#157344E7BE32DB
(1684957153.536556) can0 252#R8
(1684957153.536599) can0 322#R
(1684957153.550000) can0 0990CD3F#R4
(1684957153.550046) can0 252#R8
(1684957153.550202) can0 322#R
(1684957153.550248) can0 0990CD3F#R4
(1684957153.550344) can0 252#R8
(1684957153.550390) can0 322#R
(1684957153.550433) can0 0990CD3F#R4
(1684957153.550477) can0 252#R8
(1684957153.550520) can0 322#R
(1684957153.550563) can0 0990CD3F#R4
(1684957153.550607) can0 252#R8
(1684957153.564100) can0 322#R
(1684957153.564166) can0 252#R8
(1684957153.564378) can0 0248923F#R
(1684957153.564432) can0 252#R8
(1684957153.564649) can0 122#R8
(1684957153.564917) can0 04C89349#157344E7BED44C
(1684957153.565016) can0 122#R8
(1684957153.565064) can0 04C89349#157344E7BED44C
(1684957153.565109) can0 252#R8
(1684957153.586179) can0 252#R8
(1684957153.586316) can0 322#R
(1684957153.586363) can0 252#R8
(1684957153.586407) can0 04C89349#157344E7BED44C
(1684957153.586440) can0 322#R
(1684957153.586484) can0 252#R8
(1684957153.586538) can0 04C89349#157344E7BED44C
(1684957153.586581) can0 252#R8
(1684957153.586624) can0 322#R
(1684957153.586668) can0 04C89349#157344E7BED44C
(1684957153.586711) can0 252#R8
(1684957153.586754) can0 322#R
(1684957153.599993) can0 0990CD3F#R4
(1684957153.600050) can0 252#R8
(1684957153.600203) can0 322#R
(1684957153.600249) can0 0990CD3F#R4
(1684957153.600349) can0 252#R8
(1684957153.600395) can0 322#R
(1684957153.600439) can0 0990CD3F#R4
(1684957153.600482) can0 252#R8
(1684957153.600525) can0 322#R
(1684957153.600578) can0 0990CD3F#R4
(1684957153.614367) can0 322#R
(1684957153.614434) can0 0990CD3F#R4
(1684957153.614645) can0 0248923F#R
(1684957153.614699) can0 0990CD3F#R4
(1684957153.614918) can0 122#R8
(1684957153.615185) can0 04C89349#4B7F44E7BED44C
(1684957153.615282) can0 122#R8
(1684957153.615329) can0 04C89349#4B7F44E7BED44C
(1684957153.615375) can0 0990CD3F#R4
(1684957153.636023) can0 252#R8
(1684957153.636312) can0 0C90CD3F#R
(1684957153.636368) can0 252#R8
(1684957153.636414) can0 04C89349#4B7F44E7BED44C
(1684957153.636449) can0 0C90CD3F#R
(1684957153.636521) can0 252#R8
(1684957153.636556) can0 04C89349#4B7F44E7BED44C
(1684957153.636600) can0 0C90CD3F#R
(1684957153.636634) can0 252#R8
(1684957153.636706) can0 04C89349#4B7F44E7BED44C
(1684957153.636740) can0 0C90CD3F#R
(1684957153.636785) can0 252#R8
(1684957153.650008) can0 0990CD3F#R4
(1684957153.650053) can0 252#R8
(1684957153.650216) can0 0C90CD3F#R
(1684957153.650262) can0 0990CD3F#R4
(1684957153.650355) can0 252#R8
(1684957153.650400) can0 0C90CD3F#R
(1684957153.650444) can0 0990CD3F#R4
(1684957153.650488) can0 252#R8
(1684957153.650531) can0 0C90CD3F#R
(1684957153.650574) can0 0990CD3F#R4
(1684957153.650618) can0 252#R8
(1684957153.664681) can0 0C90CD3F#R
(1684957153.664747) can0 252#R8
(1684957153.664961) can0 0248923F#R
(1684957153.665015) can0 252#R8
(1684957153.665230) can0 122#R8
(1684957153.665498) can0 04C89349#157344E7BED44C
(1684957153.665595) can0 122#R8
(1684957153.665642) can0 04C89349#157344E7BED44C
(1684957153.665687) can0 252#R8
(1684957153.686020) can0 252#R8
(1684957153.686157) can0 322#R
(1684957153.686204) can0 252#R8
(1684957153.686248) can0 04C89349#157344E7BED44C
(1684957153.686282) can0 322#R
(1684957153.686325) can0 252#R8
(1684957153.686378) can0 04C89349#157344E7BED44C
(1684957153.686422) can0 252#R8
(1684957153.686465) can0 322#R
(1684957153.686509) can0 04C89349#157344E7BED44C
(1684957153.686552) can0 252#R8
(1684957153.686595) can0 322#R
(1684957153.700002) can0 0990CD3F#R4
(1684957153.700058) can0 252#R8
(1684957153.700213) can0 322#R
(1684957153.700259) can0 0990CD3F#R4
(1684957153.700359) can0 252#R8
(1684957153.700404) can0 322#R
(1684957153.700448) can0 0990CD3F#R4
(1684957153.700491) can0 252#R8
(1684957153.700535) can0 322#R
(1684957153.700578) can0 0990CD3F#R4
(1684957153.700621) can0 252#R8
(1684957153.714998) can0 322#R
(1684957153.715065) can0 252#R8
(1684957153.715261) can0 0248923F#R
(1684957153.715316) can0 252#R8
(1684957153.715545) can0 122#R8
(1684957153.715814) can0 04C89349#157344E7BE32DB
(1684957153.715910) can0 122#R8
(1684957153.715957) can0 04C89349#157344E7BE32DB
(1684957153.716003) can0 252#R8
(1684957153.736257) can0 252#R8
(1684957153.736394) can0 322#R
(1684957153.736441) can0 252#R8
(1684957153.736485) can0 04C89349#157344E7BE32DB
(1684957153.736519) can0 322#R
(1684957153.736562) can0 252#R8
(1684957153.736616) can0 04C89349#157344E7BE32DB
(1684957153.736659) can0 252#R8
(1684957153.736702) can0 322#R
(1684957153.736746) can0 04C89349#157344E7BE32DB
(1684957153.736789) can0 252#R8
(1684957153.736832) can0 322#R
(1684957153.750016) can0 0990CD3F#R4
(1684957153.750061) can0 252#R8
(1684957153.750223) can0 322#R
(1684957153.750270) can0 0990CD3F#R4
(1684957153.750362) can0 252#R8
(1684957153.750408) can0 322#R
(1684957153.750452) can0 0990CD3F#R4
(1684957153.750496) can0 252#R8
(1684957153.750539) can0 322#R
(1684957153.750582) can0 0990CD3F#R4
(1684957153.765307) can0 252#R8
(1684957153.765373) can0 322#R
(1684957153.765569) can0 0248923F#R8
(1684957153.765623) can0 322#R
(1684957153.765851) can0 122#R8
(1684957153.766119) can0 04C89349#157344E7BED44C
(1684957153.766216) can0 122#R8
(1684957153.766263) can0 04C89349#157344E7BED44C
(1684957153.766308) can0 322#R
(1684957153.786017) can0 252#R8
(1684957153.786156) can0 322#R
(1684957153.786202) can0 252#R8
(1684957153.786247) can0 04C89349#157344E7BED44C
(1684957153.786280) can0 322#R
(1684957153.786324) can0 252#R8
(1684957153.786377) can0 04C89349#157344E7BED44C
(1684957153.786420) can0 252#R8
(1684957153.786464) can0 322#R
(1684957153.786507) can0 04C89349#157344E7BED44C
(1684957153.786551) can0 252#R8
(1684957153.786594) can0 322#R
(1684957153.800008) can0 0990CD3F#R4
(1684957153.800064) can0 252#R8
(1684957153.800219) can0 322#R
(1684957153.800265) can0 0990CD3F#R4
(1684957153.800364) can0 252#R8
(1684957153.800410) can0 322#R
(1684957153.800454) can0 0990CD3F#R4
(1684957153.800498) can0 252#R8
(1684957153.800541) can0 322#R
(1684957153.800584) can0 0990CD3F#R4
(1684957153.815589) can0 252#R8
(1684957153.815655) can0 322#R
(1684957153.815855) can0 0248923F#R8
(1684957153.815910) can0 322#R
(1684957153.816136) can0 122#R8
(1684957153.816402) can0 04C89349#157344E7BE32DB
(1684957153.816512) can0 122#R8
(1684957153.816558) can0 04C89349#157344E7BE32DB
(1684957153.816603) can0 322#R
(1684957153.836018) can0 252#R8
(1684957153.836155) can0 322#R
(1684957153.836201) can0 252#R8
(1684957153.836246) can0 04C89349#157344E7BE32DB
(1684957153.836279) can0 322#R
(1684957153.836322) can0 252#R8
(1684957153.836376) can0 04C89349#157344E7BE32DB
(1684957153.836419) can0 252#R8
(1684957153.836462) can0 322#R
(1684957153.836506) can0 04C89349#157344E7BE32DB
(1684957153.836549) can0 252#R8
(1684957153.836593) can0 322#R
(1684957153.850022) can0 0990CD3F#R4
(1684957153.850067) can0 252#R8
(1684957153.850223) can0 322#R
(1684957153.850269) can0 0990CD3F#R4
(1684957153.850366) can0 252#R8
(1684957153.850412) can0 322#R
(1684957153.850456) can0 0990CD3F#R4
(1684957153.850499) can0 252#R8
(1684957153.850543) can0 322#R
(1684957153.850627) can0 0990CD3F#R4
(1684957153.865912) can0 322#R
(1684957153.865978) can0 0990CD3F#R4
(1684957153.866210) can0 0248923F#R
(1684957153.866264) can0 0990CD3F#R4
(1684957153.866488) can0 122#R8
(1684957153.866756) can0 04C89349#4B7F44E7BED44C
(1684957153.866867) can0 122#R8
(1684957153.866913) can0 04C89349#4B7F44E7BED44C
(1684957153.866957) can0 0990CD3F#R4
(1684957153.886149) can0 252#R8
(1684957153.886287) can0 0C90CD3F#R
(1684957153.886334) can0 252#R8
(1684957153.886378) can0 04C89349#4B7F44E7BED44C
(1684957153.886411) can0 0C90CD3F#R
(1684957153.886455) can0 252#R8
(1684957153.886508) can0 04C89349#4B7F44E7BED44C
(1684957153.886552) can0 252#R8
(1684957153.886595) can0 0C90CD3F#R
(1684957153.886639) can0 04C89349#4B7F44E7BED44C
(1684957153.886682) can0 252#R8
(1684957153.886725) can0 0C90CD3F#R
(1684957153.900018) can0 0990CD3F#R4
(1684957153.900074) can0 252#R8
(1684957153.900222) can0 0C90CD3F#R
(1684957153.900269) can0 0990CD3F#R4
(1684957153.900312) can0 252#R8
(1684957153.900356) can0 0C90CD3F#R
(1684957153.900399) can0 0990CD3F#R4
(1684957153.900442) can0 252#R8
(1684957153.900485) can0 0C90CD3F#R
(1684957153.900519) can0 0990CD3F#R4
(1684957153.900562) can0 252#R8
(1684957153.900605) can0 0C90CD3F#R
(1684957153.900648) can0 0990CD3F#R4
(1684957153.916179) can0 252#R8
(1684957153.916245) can0 0990CD3F#R4
